  can0  09F11323   [8]  09 EA DA FF FF FF FF FF
  can0  09F11223   [8]  FF FF FF FF 7F 2F F6 FF
  can0  09F11323   [8]  0A 74 11 00 00 FF FF FF
  can0  09F80123   [8]  FF FF FF 7F FF FF FF 7F
  can0  09F80223   [8]  FF FF FF FF FF FF FF FF
  can0  09F11223   [8]  FF FF FF FF 7F 2F F6 FF
  can0  09FD0223   [8]  3A 0A 00 0D B7 FA FF FF
  can0  09F11323   [8]  0B 16 25 00 00 FF FF FF
  can0  09F11223   [8]  FF FF FF FF 7F 2F F6 FF
  can0  09F11323   [8]  0C 00 00 00 00 FF FF FF
  can0  09F80123   [8]  FF FF FF 7F FF FF FF 7F
  can0  09F80223   [8]  FF FF FF FF FF FF FF FF
  can0  09F11223   [8]  FF FF FF FF 7F 2F F6 FF
  can0  09FD0223   [8]  3B FF FF FF FF F8 FF FF
  can0  09F11323   [8]  0D 16 25 00 00 FF FF FF
  can0  15FD0723   [8]  9B C1 9B 73 FF 7F E9 03
  can0  09F11223   [8]  FF FF FF FF 7F 2F F6 FF
  can0  09F11323   [8]  0E 74 11 00 00 FF FF FF
  can0  09F80123   [8]  FF FF FF 7F FF FF FF 7F
  can0  09F80223   [8]  FF FF FF FF FF FF FF FF
  can0  09F11223   [8]  FF FF FF FF 7F 2F F6 FF
  can0  09F11323   [8]  0F 47 C7 FF FF FF FF FF
  can0  09F11223   [8]  FF FF FF FF 7F 2F F6 FF
  can0  09FD0223   [8]  3C 00 00 7A F4 FA FF FF
  can0  09F11323   [8]  10 A5 B3 FF FF FF FF FF
  can0  09F80123   [8]  FF FF FF 7F FF FF FF 7F
  can0  09F80223   [8]  FF FF FF FF FF FF FF FF
  can0  09F11223   [8]  FF FF FF FF 7F 2F F6 FF
  can0  09F11323   [8]  11 8E 8E FF FF FF FF FF
  can0  09F11223   [8]  FF FF FF FF 7F 2F F6 FF
  can0  09FD0223   [8]  3D FF FF FF FF F8 FF FF
  can0  0DF01023   [8]  FF F0 FF FF FF FF FF FF
  can0  0DF80923   [8]  FF FF FF FF FF FF FF 7F
  can0  1DF11A23   [8]  4F F5 A9 42 2F F6 FF FF
  can0  19FD1323   [8]  E0 1E F0 FF FF FF FF FF
  can0  0DF11923   [8]  4F FF 7F FF 7F FF 7F FF
  can0  09F11323   [8]  12 EC 7A FF FF FF FF FF
  can0  09F80123   [8]  FF FF FF 7F FF FF FF 7F
  can0  09F80223   [8]  FF FF FF FF FF FF FF FF
  can0  19FA0323   [8]  FF DB FF 7F FF 7F FF 7F
  can0  15FD0723   [8]  9C C1 9B 73 FF 7F E9 03
  can0  09F11223   [8]  FF FF FF FF 7F 2F F6 FF
  can0  19FD1323   [8]  E1 FF FF FF FF 7F FF FF
  can0  19FD1323   [8]  E2 FF 7F 00 00 7A F4 FA
  can0  19FD1323   [8]  E3 FF FF E9 03 9B 73 02
  can0  19FD1323   [8]  E4 01 02 01 FF FF FF FF
  can0  0DF80523   [8]  E0 2B FF FF FF FF FF FF
  can0  0DF80523   [8]  E1 FF FF FF FF FF FF FF
  can0  0DF80523   [8]  E2 FF 7F FF FF FF FF FF
  can0  0DF80523   [8]  E3 FF FF 7F FF FF FF FF
  can0  0DF80523   [8]  E4 FF FF FF 7F 03 FC 00
  can0  0DF80523   [8]  E5 FF 7F FF 7F FF FF FF
  can0  0DF80523   [8]  E6 7F 00 FF FF FF FF FF
  can0  19FA0423   [8]  E0 03 FF FF 00 FF FF FF
  can0  09F11323   [8]  13 8C EE FF FF FF FF FF
  can0  09F11223   [8]  FF FF FF FF 7F 2F F6 FF
  can0  09F11323   [8]  14 0B D8 FD FF FF FF FF
  can0  09F80123   [8]  FF FF FF 7F FF FF FF 7F
  can0  09F80223   [8]  FF FF FF FF FF FF FF FF
  can0  09F11223   [8]  FF FF FF FF 7F 2F F6 FF
  can0  09FD0223   [8]  3E 0A 00 0D B7 FA FF FF
  can0  09F11323   [8]  15 C4 10 FE FF FF FF FF
  can0  09F11223   [8]  FF FF FF FF 7F 2F F6 FF
  can0  09F11323   [8]  16 DA 35 FE FF FF FF FF
  can0  09F80123   [8]  FF FF FF 7F FF FF FF 7F
  can0  09F80223   [8]  FF FF FF FF FF FF FF FF
  can0  09F11223   [8]  FF FF FF FF 7F 2F F6 FF
  can0  09FD0223   [8]  3F FF FF FF FF F8 FF FF
  can0  09F11323   [8]  17 7D 49 FE FF FF FF FF
  can0  15FD0723   [8]  9D C1 9B 73 FF 7F E9 03
  can0  09F11223   [8]  FF FF FF FF 7F 2F F6 FF
  can0  09F11323   [8]  18 C2 70 FE FF FF FF FF
  can0  09F80123   [8]  FF FF FF 7F FF FF FF 7F
  can0  09F80223   [8]  FF FF FF FF FF FF FF FF
  can0  09F11223   [8]  FF FF FF FF 7F 2F F6 FF
  can0  09F11323   [8]  19 7D 49 FE FF FF FF FF
  can0  09F11223   [8]  FF FF FF FF 7F 2F F6 FF
  can0  09FD0223   [8]  40 00 00 7A F4 FA FF FF
  can0  09F11323   [8]  1A 36 82 FE FF FF FF FF
  can0  09F80123   [8]  FF FF FF 7F FF FF FF 7F
  can0  09F80223   [8]  FF FF FF FF FF FF FF FF
  can0  09F11223   [8]  FF FF FF FF 7F 2F F6 FF
  can0  09F11323   [8]  1B C2 70 FE FF FF FF FF
  can0  09F11223   [8]  FF FF FF FF 7F 2F F6 FF
  can0  09FD0223   [8]  41 FF FF FF FF F8 FF FF
  can0  0DF01023   [8]  FF F0 FF FF FF FF FF FF
  can0  0DF80923   [8]  FF FF FF FF FF FF FF 7F
  can0  1DF11A23   [8]  50 F5 A9 42 2F F6 FF FF
  can0  19FD1323   [8]  00 1E F0 FF FF FF FF FF
  can0  0DF11923   [8]  50 FF 7F FF 7F FF 7F FF
  can0  09F11323   [8]  1C 34 E2 FE FF FF FF FF
  can0  09F80123   [8]  FF FF FF 7F FF FF FF 7F
  can0  09F80223   [8]  FF FF FF FF FF FF FF FF
  can0  19FA0323   [8]  FF DB FF 7F FF 7F FF 7F
  can0  15FD0723   [8]  9E C1 9B 73 FF 7F E9 03
  can0  15FD0823   [8]  FF 00 01 9B 73 FF FF FF
  can0  15FD0A23   [8]  FF 00 00 B8 47 0F 00 FF
  can0  09F11223   [8]  FF FF FF FF 7F 2F F6 FF
  can0  19FD1323   [8]  01 FF FF FF FF 7F FF FF
  can0  19FD1323   [8]  02 FF 7F 00 00 7A F4 FA
  can0  19FD1323   [8]  03 FF FF E9 03 9B 73 02
  can0  19FD1323   [8]  04 01 02 01 FF FF FF FF
  can0  0DF80523   [8]  00 2B FF FF FF FF FF FF
  can0  0DF80523   [8]  01 FF FF FF FF FF FF FF
  can0  0DF80523   [8]  02 FF 7F FF FF FF FF FF
  can0  0DF80523   [8]  03 FF FF 7F FF FF FF FF
  can0  0DF80523   [8]  04 FF FF FF 7F 03 FC 00
  can0  0DF80523   [8]  05 FF 7F FF 7F FF FF FF
  can0  0DF80523   [8]  06 7F 00 FF FF FF FF FF
  can0  19FA0423   [8]  00 03 FF FF 00 FF FF FF
  can0  09F11323   [8]  1D D5 55 FF FF FF FF FF
  can0  09F11223   [8]  FF FF FF FF 7F 2F F6 FF
  can0  09F11323   [8]  1E 79 09 FF FF FF FF FF
  can0  09F80123   [8]  FF FF FF 7F FF FF FF 7F
  can0  09F80223   [8]  FF FF FF FF FF FF FF FF
  can0  09F11223   [8]  FF FF FF FF 7F 2F F6 FF
  can0  09FD0223   [8]  42 00 00 7A F4 FA FF FF
  can0  09F11323   [8]  1F 49 67 FF FF FF FF FF
  can0  09F11223   [8]  FF FF FF FF 7F 2F F6 FF
  can0  09F11323   [8]  20 8E 8E FF FF FF FF FF
  can0  09F80123   [8]  FF FF FF 7F FF FF FF 7F
  can0  09F80223   [8]  FF FF FF FF FF FF FF FF
  can0  09F11223   [8]  FF FF FF FF 7F 2F F6 FF
  can0  09FD0223   [8]  43 FF FF FF FF F8 FF FF
  can0  09F11323   [8]  21 ED 1A FF FF FF FF FF
  can0  15FD0723   [8]  9F C1 9B 73 FF 7F E9 03
  can0  09F11223   [8]  FF FF FF FF 7F 2F F6 FF
  can0  09F11323   [8]  22 8E 8E FF FF FF FF FF
  can0  09F80123   [8]  FF FF FF 7F FF FF FF 7F
  can0  09F80223   [8]  FF FF FF FF FF FF FF FF
  can0  09F11223   [8]  FF FF FF FF 7F 2F F6 FF
  can0  09F11323   [8]  23 A5 B3 FF FF FF FF FF
  can0  09F11223   [8]  FF FF FF FF 7F 2F F6 FF
  can0  09FD0223   [8]  44 00 00 7A F4 FA FF FF
  can0  09F11323   [8]  24 A5 B3 FF FF FF FF FF
  can0  09F80123   [8]  FF FF FF 7F FF FF FF 7F
  can0  09F80223   [8]  FF FF FF FF FF FF FF FF
  can0  09F11223   [8]  FF FF FF FF 7F 2F F6 FF
  can0  09F11323   [8]  25 EC 7A FF FF FF FF FF
  can0  09F11223   [8]  FF FF FF FF 7F 2F F6 FF
  can0  09FD0223   [8]  45 FF FF FF FF F8 FF FF
  can0  0DF01023   [8]  FF F0 FF FF FF FF FF FF
  can0  0DF80923   [8]  FF FF FF FF FF FF FF 7F
  can0  1DF11A23   [8]  51 F5 A9 42 2F F6 FF FF
  can0  19FD1323   [8]  20 1E F0 FF FF FF FF FF
  can0  0DF11923   [8]  51 FF 7F FF 7F FF 7F FF
  can0  09F11323   [8]  26 31 A2 FF FF FF FF FF
  can0  09F80123   [8]  FF FF FF 7F FF FF FF 7F
  can0  09F80223   [8]  FF FF FF FF FF FF FF FF
  can0  19FA0323   [8]  FF DB FF 7F FF 7F FF 7F
  can0  15FD0723   [8]  A0 C1 9B 73 FF 7F E9 03
  can0  09F11223   [8]  FF FF FF FF 7F 2F F6 FF
  can0  19FD1323   [8]  21 FF FF FF FF 7F FF FF
  can0  19FD1323   [8]  22 FF 7F 00 00 7A F4 FA
  can0  19FD1323   [8]  23 FF FF E9 03 9B 73 02
  can0  19FD1323   [8]  24 01 02 01 FF FF FF FF
  can0  0DF80523   [8]  20 2B FF FF FF FF FF FF
  can0  0DF80523   [8]  21 FF FF FF FF FF FF FF
  can0  0DF80523   [8]  22 FF 7F FF FF FF FF FF
  can0  0DF80523   [8]  23 FF FF 7F FF FF FF FF
  can0  0DF80523   [8]  24 FF FF FF 7F 03 FC 00
  can0  0DF80523   [8]  25 FF 7F FF 7F FF FF FF
  can0  0DF80523   [8]  26 7F 00 FF FF FF FF FF
  can0  19FA0423   [8]  20 03 FF FF 00 FF FF FF
  can0  09F11323   [8]  27 47 C7 FF FF FF FF FF
  can0  09F11223   [8]  FF FF FF FF 7F 2F F6 FF
  can0  09F11323   [8]  28 74 11 00 00 FF FF FF
  can0  09F80123   [8]  FF FF FF 7F FF FF FF 7F
  can0  09F80223   [8]  FF FF FF FF FF FF FF FF
  can0  09F11223   [8]  FF FF FF FF 7F 2F F6 FF
  can0  09FD0223   [8]  46 00 00 7A F4 FA FF FF
  can0  09F11323   [8]  29 EA DA FF FF FF FF FF
  can0  09F11223   [8]  FF FF FF FF 7F 2F F6 FF
  can0  09F11323   [8]  2A 00 00 00 00 FF FF FF
  can0  09F80123   [8]  FF FF FF 7F FF FF FF 7F
  can0  09F80223   [8]  FF FF FF FF FF FF FF FF
  can0  09F11223   [8]  FF FF FF FF 7F 2F F6 FF
  can0  09FD0223   [8]  47 FF FF FF FF F8 FF FF
  can0  09F11323   [8]  2B 8C EE FF FF FF FF FF
  can0  15FD0723   [8]  A1 C1 9B 73 FF 7F E9 03
  can0  09F11223   [8]  FF FF FF FF 7F 2F F6 FF
  can0  09F11323   [8]  2C CD BD 00 00 FF FF FF
  can0  09F80123   [8]  FF FF FF 7F FF FF FF 7F
  can0  09F80223   [8]  FF FF FF FF FF FF FF FF
  can0  09F11223   [8]  FF FF FF FF 7F 2F F6 FF
  can0  09F11323   [8]  2D 14 85 00 00 FF FF FF
  can0  09F11223   [8]  FF FF FF FF 7F 2F F6 FF
  can0  09FD0223   [8]  48 00 00 7A F4 FA FF FF
  can0  09F11323   [8]  2E CC 1D 01 00 FF FF FF
  can0  09F80123   [8]  FF FF FF 7F FF FF FF 7F
  can0  09F80223   [8]  FF FF FF FF FF FF FF FF
  can0  09F11223   [8]  FF FF FF FF 7F 2F F6 FF
  can0  09F11323   [8]  2F 85 56 01 00 FF FF FF
  can0  09F11223   [8]  FF FF FF FF 7F 2F F6 FF
  can0  09FD0223   [8]  49 FF FF FF FF F8 FF FF
  can0  0DF01023   [8]  FF F0 FF FF FF FF FF FF
  can0  0DF80923   [8]  FF FF FF FF FF FF FF 7F
  can0  1DF11A23   [8]  52 F5 A9 42 2F F6 FF FF
  can0  19FD1323   [8]  40 1E F0 FF FF FF FF FF
  can0  0DF11923   [8]  52 FF 7F FF 7F FF 7F FF
  can0  09F11323   [8]  30 81 16 02 00 FF FF FF
  can0  09F80123   [8]  FF FF FF 7F FF FF FF 7F
  can0  09F80223   [8]  FF FF FF FF FF FF FF FF
  can0  19FA0323   [8]  FF DB FF 7F FF 7F FF 7F
  can0  15FD0723   [8]  A2 C1 9B 73 FF 7F E9 03
  can0  15FD0823   [8]  FF 00 01 9B 73 FF FF FF
  can0  15FD0A23   [8]  FF 00 00 54 47 0F 00 FF
  can0  09F11223   [8]  FF FF FF FF 7F 2F F6 FF
  can0  19FD1323   [8]  41 FF FF FF FF 7F FF FF
  can0  19FD1323   [8]  42 FF 7F 00 00 7A F4 FA
  can0  19FD1323   [8]  43 FF FF E9 03 9B 73 02
  can0  19FD1323   [8]  44 01 02 01 FF FF FF FF
  can0  0DF80523   [8]  40 2B FF FF FF FF FF FF
  can0  0DF80523   [8]  41 FF FF FF FF FF FF FF
  can0  0DF80523   [8]  42 FF 7F FF FF FF FF FF
  can0  0DF80523   [8]  43 FF FF 7F FF FF FF FF
  can0  0DF80523   [8]  44 FF FF FF 7F 03 FC 00
  can0  0DF80523   [8]  45 FF 7F FF 7F FF FF FF
  can0  0DF80523   [8]  46 7F 00 FF FF FF FF FF
  can0  19FA0423   [8]  40 03 FF FF 00 FF FF FF
  can0  09F11323   [8]  31 98 3B 02 00 FF FF FF
  can0  09F11223   [8]  FF FF FF FF 7F 2F F6 FF
  can0  09F11323   [8]  32 83 B6 01 00 FF FF FF
  can0  09F80123   [8]  FF FF FF 7F FF FF FF 7F
  can0  09F80223   [8]  FF FF FF FF FF FF FF FF
  can0  09F11223   [8]  FF FF FF FF 7F 2F F6 FF
  can0  09FD0223   [8]  4A 00 00 7A F4 FA FF FF
  can0  09F11323   [8]  33 CA 7D 01 00 FF FF FF
  can0  09F11223   [8]  FF FF FF FF 7F 2F F6 FF
  can0  09F11323   [8]  34 85 56 01 00 FF FF FF
  can0  09F80123   [8]  FF FF FF 7F FF FF FF 7F
  can0  09F80223   [8]  FF FF FF FF FF FF FF FF
  can0  09F11223   [8]  FF FF FF FF 7F 2F F6 FF
  can0  09FD0223   [8]  4B FF FF FF FF F8 FF FF
  can0  09F11323   [8]  35 27 6A 01 00 FF FF FF
  can0  15FD0723   [8]  A3 C1 9B 73 FF 7F E9 03
  can0  09F11223   [8]  FF FF FF FF 7F 2F F6 FF
  can0  09F11323   [8]  36 87 F6 00 00 FF FF FF
  can0  09F80123   [8]  FF FF FF 7F FF FF FF 7F
  can0  09F80223   [8]  FF FF FF FF FF FF FF FF
  can0  09F11223   [8]  FF FF FF FF 7F 2F F6 FF
  can0  09F11323   [8]  37 14 85 00 00 FF FF FF
  can0  09F11223   [8]  FF FF FF FF 7F 2F F6 FF
  can0  09FD0223   [8]  4C 00 00 7A F4 FA FF FF
  can0  09F11323   [8]  38 14 85 00 00 FF FF FF
  can0  09F80123   [8]  FF FF FF 7F FF FF FF 7F
  can0  09F80223   [8]  FF FF FF FF FF FF FF FF
  can0  09F11223   [8]  FF FF FF FF 7F 2F F6 FF
  can0  09F11323   [8]  39 2B AA 00 00 FF FF FF
  can0  09F11223   [8]  FF FF FF FF 7F 2F F6 FF
  can0  09FD0223   [8]  4D FF FF FF FF F8 FF FF
  can0  0DF01023   [8]  FF F0 FF FF FF FF FF FF
  can0  0DF80923   [8]  FF FF FF FF FF FF FF 7F
  can0  1DF11A23   [8]  53 F5 A9 42 2F F6 FF FF
  can0  19FD1323   [8]  60 1E F0 FF FF FF FF FF
  can0  0DF11923   [8]  53 FF 7F FF 7F FF 7F FF
  can0  09F11323   [8]  3A B7 98 00 00 FF FF FF
  can0  09F80123   [8]  FF FF FF 7F FF FF FF 7F
  can0  09F80223   [8]  FF FF FF FF FF FF FF FF
  can0  19FA0323   [8]  FF DB FF 7F FF 7F FF 7F
  can0  15FD0723   [8]  A4 C1 9B 73 FF 7F E9 03
  can0  09F11223   [8]  FF FF FF FF 7F 2F F6 FF
  can0  19FD1323   [8]  61 FF FF FF FF 7F FF FF
  can0  19FD1323   [8]  62 FF 7F 00 00 7A F4 FA
  can0  19FD1323   [8]  63 FF FF E9 03 9B 73 02
  can0  19FD1323   [8]  64 01 02 01 FF FF FF FF
  can0  0DF80523   [8]  60 2B FF FF FF FF FF FF
  can0  0DF80523   [8]  61 FF FF FF FF FF FF FF
  can0  0DF80523   [8]  62 FF 7F FF FF FF FF FF
  can0  0DF80523   [8]  63 FF FF 7F FF FF FF FF
  can0  0DF80523   [8]  64 FF FF FF 7F 03 FC 00
  can0  0DF80523   [8]  65 FF 7F FF 7F FF FF FF
  can0  0DF80523   [8]  66 7F 00 FF FF FF FF FF
  can0  19FA0423   [8]  60 03 FF FF 00 FF FF FF
  can0  09F11323   [8]  3B 70 D1 00 00 FF FF FF
  can0  09F11223   [8]  FF FF FF FF 7F 2F F6 FF
  can0  09F11323   [8]  3C 5B 4C 00 00 FF FF FF
  can0  09F80123   [8]  FF FF FF 7F FF FF FF 7F
  can0  09F80223   [8]  FF FF FF FF FF FF FF FF
  can0  09F11223   [8]  FF FF FF FF 7F 2F F6 FF
  can0  09FD0223   [8]  4E 00 00 7A F4 FA FF FF
  can0  09F11323   [8]  3D 72 71 00 00 FF FF FF
  can0  09F11223   [8]  FF FF FF FF 7F 2F F6 FF
  can0  09F11323   [8]  3E B9 38 00 00 FF FF FF
  can0  09F80123   [8]  FF FF FF 7F FF FF FF 7F
  can0  09F80223   [8]  FF FF FF FF FF FF FF FF
  can0  09F11223   [8]  FF FF FF FF 7F 2F F6 FF
  can0  09FD0223   [8]  4F FF FF FF FF F8 FF FF
  can0  09F11323   [8]  3F CF 5D 00 00 FF FF FF
  can0  15FD0723   [8]  A5 C1 9B 73 FF 7F E9 03
  can0  09F11223   [8]  FF FF FF FF 7F 2F F6 FF
  can0  09F11323   [8]  40 00 00 00 00 FF FF FF
  can0  09F80123   [8]  FF FF FF 7F FF FF FF 7F
  can0  09F80223   [8]  FF FF FF FF FF FF FF FF
  can0  09F11223   [8]  FF FF FF FF 7F 2F F6 FF
  can0  09F11323   [8]  41 EA DA FF FF FF FF FF
  can0  09F11223   [8]  FF FF FF FF 7F 2F F6 FF
  can0  09FD0223   [8]  50 00 00 7A F4 FA FF FF
  can0  09F11323   [8]  42 D5 55 FF FF FF FF FF
  can0  09F80123   [8]  FF FF FF 7F FF FF FF 7F
  can0  09F80223   [8]  FF FF FF FF FF FF FF FF
  can0  09F11223   [8]  FF FF FF FF 7F 2F F6 FF
  can0  09F11323   [8]  43 EC 7A FF FF FF FF FF
  can0  09F11223   [8]  FF FF FF FF 7F 2F F6 FF
  can0  09FD0223   [8]  51 FF FF FF FF F8 FF FF
  can0  0DF01023   [8]  FF F0 FF FF FF FF FF FF
  can0  0DF80923   [8]  FF FF FF FF FF FF FF 7F
  can0  1DF11A23   [8]  54 F5 A9 42 2F F6 FF FF
  can0  19FD1323   [8]  80 1E F0 FF FF FF FF FF
  can0  0DF11923   [8]  54 FF 7F FF 7F FF 7F FF
  can0  09F11323   [8]  44 00 00 00 00 FF FF FF
  can0  09F80123   [8]  FF FF FF 7F FF FF FF 7F
  can0  09F80223   [8]  FF FF FF FF FF FF FF FF
  can0  19FA0323   [8]  FF DB FF 7F FF 7F FF 7F
  can0  15FD0723   [8]  A6 C1 9B 73 FF 7F E9 03
  can0  15FD0823   [8]  FF 00 01 9B 73 FF FF FF
  can0  15FD0A23   [8]  FF 00 00 54 47 0F 00 FF
  can0  09F11223   [8]  FF FF FF FF 7F 2F F6 FF
  can0  19FD1323   [8]  81 FF FF FF FF 7F FF FF
  can0  19FD1323   [8]  82 FF 7F 00 00 7A F4 FA
  can0  19FD1323   [8]  83 FF FF E9 03 9B 73 02
  can0  19FD1323   [8]  84 01 02 01 FF FF FF FF
  can0  0DF80523   [8]  80 2B FF FF FF FF FF FF
  can0  0DF80523   [8]  81 FF FF FF FF FF FF FF
  can0  0DF80523   [8]  82 FF 7F FF FF FF FF FF
  can0  0DF80523   [8]  83 FF FF 7F FF FF FF FF
  can0  0DF80523   [8]  84 FF FF FF 7F 03 FC 00
  can0  0DF80523   [8]  85 FF 7F FF 7F FF FF FF
  can0  0DF80523   [8]  86 7F 00 FF FF FF FF FF
  can0  19FA0423   [8]  80 03 FF FF 00 FF FF FF
  can0  09F11323   [8]  45 8E 8E FF FF FF FF FF
  can0  09F11223   [8]  FF FF FF FF 7F 2F F6 FF
  can0  09F11323   [8]  46 8C EE FF FF FF FF FF
  can0  09F80123   [8]  FF FF FF 7F FF FF FF 7F
  can0  09F80223   [8]  FF FF FF FF FF FF FF FF
  can0  09F11223   [8]  FF FF FF FF 7F 2F F6 FF
  can0  09FD0223   [8]  52 00 00 7A F4 FA FF FF
  can0  09F11323   [8]  47 74 11 00 00 FF FF FF
  can0  09F11223   [8]  FF FF FF FF 7F 2F F6 FF
  can0  09F11323   [8]  48 A5 B3 FF FF FF FF FF
  can0  09F80123   [8]  FF FF FF 7F FF FF FF 7F
  can0  09F80223   [8]  FF FF FF FF FF FF FF FF
  can0  09F11223   [8]  FF FF FF FF 7F 2F F6 FF
  can0  09FD0223   [8]  53 FF FF FF FF F8 FF FF
  can0  09F11323   [8]  49 00 00 00 00 FF FF FF
  can0  15FD0723   [8]  A7 C1 9B 73 FF 7F E9 03
  can0  09F11223   [8]  FF FF FF FF 7F 2F F6 FF
  can0  09F11323   [8]  4A EA DA FF FF FF FF FF
  can0  09F80123   [8]  FF FF FF 7F FF FF FF 7F
  can0  09F80223   [8]  FF FF FF FF FF FF FF FF
  can0  09F11223   [8]  FF FF FF FF 7F 2F F6 FF
  can0  09F11323   [8]  4B 16 25 00 00 FF FF FF
  can0  09F11223   [8]  FF FF FF FF 7F 2F F6 FF
  can0  09FD0223   [8]  54 00 00 7A F4 FA FF FF
  can0  09F11323   [8]  4C B7 98 00 00 FF FF FF
  can0  09F80123   [8]  FF FF FF 7F FF FF FF 7F
  can0  09F80223   [8]  FF FF FF FF FF FF FF FF
  can0  09F11223   [8]  FF FF FF FF 7F 2F F6 FF
  can0  09F11323   [8]  4D 72 71 00 00 FF FF FF
  can0  09F11223   [8]  FF FF FF FF 7F 2F F6 FF
  can0  09FD0223   [8]  55 FF FF FF FF F8 FF FF
  can0  0DF01023   [8]  FF F0 FF FF FF FF FF FF
  can0  0DF80923   [8]  FF FF FF FF FF FF FF 7F
  can0  1DF11A23   [8]  55 F5 A9 42 2F F6 FF FF
  can0  19FD1323   [8]  A0 1E F0 FF FF FF FF FF
  can0  0DF11923   [8]  55 FF 7F FF 7F FF 7F FF
  can0  09F11323   [8]  4E 47 C7 FF FF FF FF FF
  can0  09F80123   [8]  FF FF FF 7F FF FF FF 7F
  can0  09F80223   [8]  FF FF FF FF FF FF FF FF
  can0  19FA0323   [8]  FF DB FF 7F FF 7F FF 7F
  can0  15FD0723   [8]  A8 C1 9B 73 FF 7F E9 03
  can0  09F11223   [8]  FF FF FF FF 7F 2F F6 FF
  can0  19FD1323   [8]  A1 FF FF FF FF 7F FF FF
  can0  19FD1323   [8]  A2 FF 7F 00 00 7A F4 FA
  can0  19FD1323   [8]  A3 FF FF E9 03 9B 73 02
  can0  19FD1323   [8]  A4 01 02 01 FF FF FF FF
  can0  0DF80523   [8]  A0 2B FF FF FF FF FF FF
  can0  0DF80523   [8]  A1 FF FF FF FF FF FF FF
  can0  0DF80523   [8]  A2 FF 7F FF FF FF FF FF
  can0  0DF80523   [8]  A3 FF FF 7F FF FF FF FF
  can0  0DF80523   [8]  A4 FF FF FF 7F 03 FC 00
  can0  0DF80523   [8]  A5 FF 7F FF 7F FF FF FF
  can0  0DF80523   [8]  A6 7F 00 FF FF FF FF FF
  can0  19FA0423   [8]  A0 03 FF FF 00 FF FF FF
  can0  09F11323   [8]  4F 31 A2 FF FF FF FF FF
  can0  09F11223   [8]  FF FF FF FF 7F 2F F6 FF
  can0  09F11323   [8]  50 B9 38 00 00 FF FF FF
  can0  09F80123   [8]  FF FF FF 7F FF FF FF 7F
  can0  09F80223   [8]  FF FF FF FF FF FF FF FF
  can0  09F11223   [8]  FF FF FF FF 7F 2F F6 FF
  can0  09FD0223   [8]  56 00 00 7A F4 FA FF FF
  can0  09F11323   [8]  51 8C EE FF FF FF FF FF
  can0  09F11223   [8]  FF FF FF FF 7F 2F F6 FF
  can0  09F11323   [8]  52 00 00 00 00 FF FF FF
  can0  09F80123   [8]  FF FF FF 7F FF FF FF 7F
  can0  09F80223   [8]  FF FF FF FF FF FF FF FF
  can0  09F11223   [8]  FF FF FF FF 7F 2F F6 FF
  can0  09FD0223   [8]  57 FF FF FF FF F8 FF FF
  can0  09F11323   [8]  53 A5 B3 FF FF FF FF FF
  can0  15FD0723   [8]  A9 C1 9B 73 FF 7F E9 03
  can0  09F11223   [8]  FF FF FF FF 7F 2F F6 FF
  can0  09F11323   [8]  54 8C EE FF FF FF FF FF
  can0  09F80123   [8]  FF FF FF 7F FF FF FF 7F
  can0  09F80223   [8]  FF FF FF FF FF FF FF FF
  can0  09F11223   [8]  FF FF FF FF 7F 2F F6 FF
  can0  09F11323   [8]  55 90 2E FF FF FF FF FF
  can0  09F11223   [8]  FF FF FF FF 7F 2F F6 FF
  can0  09FD0223   [8]  58 00 00 7A F4 FA FF FF
  can0  09F11323   [8]  56 EC 7A FF FF FF FF FF
  can0  09F80123   [8]  FF FF FF 7F FF FF FF 7F
  can0  09F80223   [8]  FF FF FF FF FF FF FF FF
  can0  09F11223   [8]  FF FF FF FF 7F 2F F6 FF
  can0  09F11323   [8]  57 EC 7A FF FF FF FF FF
  can0  09F11223   [8]  FF FF FF FF 7F 2F F6 FF
  can0  09FD0223   [8]  59 FF FF FF FF F8 FF FF
  can0  0DF01023   [8]  FF F0 FF FF FF FF FF FF
  can0  0DF80923   [8]  FF FF FF FF FF FF FF 7F
  can0  1DF11A23   [8]  56 F5 A9 42 2F F6 FF FF
  can0  19FD1323   [8]  C0 1E F0 FF FF FF FF FF
  can0  0DF11923   [8]  56 FF 7F FF 7F FF 7F FF
  can0  09F11323   [8]  58 47 C7 FF FF FF FF FF
  can0  09F80123   [8]  FF FF FF 7F FF FF FF 7F
  can0  09F80223   [8]  FF FF FF FF FF FF FF FF
  can0  19FA0323   [8]  FF DB FF 7F FF 7F FF 7F
  can0  15FD0723   [8]  AA C1 9B 73 FF 7F E9 03
  can0  15FD0823   [8]  FF 00 01 9B 73 FF FF FF
  can0  15FD0A23   [8]  FF 00 00 54 47 0F 00 FF
  can0  09F11223   [8]  FF FF FF FF 7F 2F F6 FF
  can0  19FD1323   [8]  C1 FF FF FF FF 7F FF FF
  can0  19FD1323   [8]  C2 FF 7F 00 00 7A F4 FA
  can0  19FD1323   [8]  C3 FF FF E9 03 9B 73 02
  can0  19FD1323   [8]  C4 01 02 01 FF FF FF FF
  can0  0DF80523   [8]  C0 2B FF FF FF FF FF FF
  can0  0DF80523   [8]  C1 FF FF FF FF FF FF FF
  can0  0DF80523   [8]  C2 FF 7F FF FF FF FF FF
  can0  0DF80523   [8]  C3 FF FF 7F FF FF FF FF
  can0  0DF80523   [8]  C4 FF FF FF 7F 03 FC 00
  can0  0DF80523   [8]  C5 FF 7F FF 7F FF FF FF
  can0  0DF80523   [8]  C6 7F 00 FF FF FF FF FF
  can0  19FA0423   [8]  C0 03 FF FF 00 FF FF FF
  can0  09F11323   [8]  59 A5 B3 FF FF FF FF FF
  can0  09F11223   [8]  FF FF FF FF 7F 2F F6 FF
  can0  09F11323   [8]  5A 47 C7 FF FF FF FF FF
  can0  09F80123   [8]  FF FF FF 7F FF FF FF 7F
  can0  09F80223   [8]  FF FF FF FF FF FF FF FF
  can0  09F11223   [8]  FF FF FF FF 7F 2F F6 FF
  can0  09FD0223   [8]  5A 00 00 7A F4 FA FF FF
  can0  09F11323   [8]  5B EA DA FF FF FF FF FF
  can0  09F11223   [8]  FF FF FF FF 7F 2F F6 FF
  can0  09F11323   [8]  5C 16 25 00 00 FF FF FF
  can0  09F80123   [8]  FF FF FF 7F FF FF FF 7F
  can0  09F80223   [8]  FF FF FF FF FF FF FF FF
  can0  09F11223   [8]  FF FF FF FF 7F 2F F6 FF
  can0  09FD0223   [8]  5B FF FF FF FF F8 FF FF
  can0  09F11323   [8]  5D 47 C7 FF FF FF FF FF
  can0  15FD0723   [8]  AB C1 9B 73 FF 7F E9 03
  can0  09F11223   [8]  FF FF FF FF 7F 2F F6 FF
  can0  09F11323   [8]  5E 00 00 00 00 FF FF FF
  can0  09F80123   [8]  FF FF FF 7F FF FF FF 7F
  can0  09F80223   [8]  FF FF FF FF FF FF FF FF
  can0  09F11223   [8]  FF FF FF FF 7F 2F F6 FF
  can0  09F11323   [8]  5F EC 7A FF FF FF FF FF
  can0  09F11223   [8]  FF FF FF FF 7F 2F F6 FF
  can0  09FD0223   [8]  5C 00 00 7A F4 FA FF FF
  can0  09F11323   [8]  60 8E 8E FF FF FF FF FF
  can0  09F80123   [8]  FF FF FF 7F FF FF FF 7F
  can0  09F80223   [8]  FF FF FF FF FF FF FF FF
  can0  09F11223   [8]  FF FF FF FF 7F 2F F6 FF
  can0  09F11323   [8]  61 8C EE FF FF FF FF FF
  can0  09F11223   [8]  FF FF FF FF 7F 2F F6 FF
  can0  09FD0223   [8]  5D FF FF FF FF F8 FF FF
  can0  0DF01023   [8]  FF F0 FF FF FF FF FF FF
  can0  0DF80923   [8]  FF FF FF FF FF FF FF 7F
  can0  1DF11A23   [8]  57 F5 A9 42 2F F6 FF FF
  can0  19FD1323   [8]  E0 1E F0 FF FF FF FF FF
  can0  0DF11923   [8]  57 FF 7F FF 7F FF 7F FF
  can0  09F11323   [8]  62 D5 55 FF FF FF FF FF
  can0  09F80123   [8]  FF FF FF 7F FF FF FF 7F
  can0  09F80223   [8]  FF FF FF FF FF FF FF FF
  can0  19FA0323   [8]  FF DB FF 7F FF 7F FF 7F
  can0  15FD0723   [8]  AC C1 9B 73 FF 7F E9 03
  can0  09F11223   [8]  FF FF FF FF 7F 2F F6 FF
  can0  19FD1323   [8]  E1 FF FF FF FF 7F FF FF
  can0  19FD1323   [8]  E2 FF 7F 00 00 7A F4 FA
  can0  19FD1323   [8]  E3 FF FF E9 03 9B 73 02
  can0  19FD1323   [8]  E4 01 02 01 FF FF FF FF
  can0  0DF80523   [8]  E0 2B FF FF FF FF FF FF
  can0  0DF80523   [8]  E1 FF FF FF FF FF FF FF
  can0  0DF80523   [8]  E2 FF 7F FF FF FF FF FF
  can0  0DF80523   [8]  E3 FF FF 7F FF FF FF FF
  can0  0DF80523   [8]  E4 FF FF FF 7F 03 FC 00
  can0  0DF80523   [8]  E5 FF 7F FF 7F FF FF FF
  can0  0DF80523   [8]  E6 7F 00 FF FF FF FF FF
  can0  19FA0423   [8]  E0 03 FF FF 00 FF FF FF
  can0  09F11323   [8]  63 EA DA FF FF FF FF FF
  can0  09F11223   [8]  FF FF FF FF 7F 2F F6 FF
  can0  09F11323   [8]  64 EA DA FF FF FF FF FF
  can0  09F80123   [8]  FF FF FF 7F FF FF FF 7F
  can0  09F80223   [8]  FF FF FF FF FF FF FF FF
  can0  09F11223   [8]  FF FF FF FF 7F 2F F6 FF
  can0  09FD0223   [8]  5E 00 00 7A F4 FA FF FF
  can0  09F11323   [8]  65 EA DA FF FF FF FF FF
  can0  09F11223   [8]  FF FF FF FF 7F 2F F6 FF
  can0  09F11323   [8]  66 31 A2 FF FF FF FF FF
  can0  09F80123   [8]  FF FF FF 7F FF FF FF 7F
  can0  09F80223   [8]  FF FF FF FF FF FF FF FF
  can0  09F11223   [8]  FF FF FF FF 7F 2F F6 FF
  can0  09FD0223   [8]  5F FF FF FF FF F8 FF FF
  can0  09F11323   [8]  67 49 67 FF FF FF FF FF
  can0  15FD0723   [8]  AD C1 9B 73 FF 7F E9 03
  can0  09F11223   [8]  FF FF FF FF 7F 2F F6 FF
  can0  09F11323   [8]  68 31 A2 FF FF FF FF FF
  can0  09F80123   [8]  FF FF FF 7F FF FF FF 7F
  can0  09F80223   [8]  FF FF FF FF FF FF FF FF
  can0  09F11223   [8]  FF FF FF FF 7F 2F F6 FF
  can0  09F11323   [8]  69 D5 55 FF FF FF FF FF
  can0  09F11223   [8]  FF FF FF FF 7F 2F F6 FF
  can0  09FD0223   [8]  60 00 00 7A F4 FA FF FF
  can0  09F11323   [8]  6A 79 09 FF FF FF FF FF
  can0  09F80123   [8]  FF FF FF 7F FF FF FF 7F
  can0  09F80223   [8]  FF FF FF FF FF FF FF FF
  can0  09F11223   [8]  FF FF FF FF 7F 2F F6 FF
  can0  09F11323   [8]  6B 34 E2 FE FF FF FF FF
  can0  09F11223   [8]  FF FF FF FF 7F 2F F6 FF
  can0  09FD0223   [8]  61 FF FF FF FF F8 FF FF
  can0  0DF01023   [8]  FF F0 FF FF FF FF FF FF
  can0  0DF80923   [8]  FF FF FF FF FF FF FF 7F
  can0  1DF11A23   [8]  58 F5 A9 42 2F F6 FF FF
  can0  19FD1323   [8]  00 1E F0 FF FF FF FF FF
  can0  0DF11923   [8]  58 FF 7F FF 7F FF 7F FF
  can0  09F11323   [8]  6C D9 95 FE FF FF FF FF
  can0  09F80123   [8]  FF FF FF 7F FF FF FF 7F
  can0  09F80223   [8]  FF FF FF FF FF FF FF FF
  can0  19FA0323   [8]  FF DB FF 7F FF 7F FF 7F
  can0  15FD0723   [8]  AE C1 9B 73 FF 7F E9 03
  can0  15FD0823   [8]  FF 00 01 9B 73 FF FF FF
  can0  15FD0A23   [8]  FF 00 00 54 47 0F 00 FF
  can0  09F11223   [8]  FF FF FF FF 7F 2F F6 FF
  can0  19FD1323   [8]  01 FF FF FF FF 7F FF FF
  can0  19FD1323   [8]  02 FF 7F 0A 00 0D B7 FA
  can0  19FD1323   [8]  03 FF FF E9 03 9B 73 02
  can0  19FD1323   [8]  04 01 02 01 FF FF FF FF
  can0  19F81423   [8]  00 14 57 38 34 FF 00 00
  can0  19F81423   [8]  01 00 00 00 00 00 00 00
  can0  19F81423   [8]  02 00 00 00 57 38 34 FF
  can0  0DF80523   [8]  00 2B FF FF FF FF FF FF
  can0  0DF80523   [8]  01 FF FF FF FF FF FF FF
  can0  0DF80523   [8]  02 FF 7F FF FF FF FF FF
  can0  0DF80523   [8]  03 FF FF 7F FF FF FF FF
  can0  0DF80523   [8]  04 FF FF FF 7F 03 FC 00
  can0  0DF80523   [8]  05 FF 7F FF 7F FF FF FF
  can0  0DF80523   [8]  06 7F 00 FF FF FF FF FF
  can0  19FA0423   [8]  00 03 FF FF 00 FF FF FF
  can0  09F11323   [8]  6D 1E BD FE FF FF FF FF
  can0  09F11223   [8]  FF FF FF FF 7F 2F F6 FF
  can0  09F11323   [8]  6E D7 F5 FE FF FF FF FF
  can0  09F80123   [8]  FF FF FF 7F FF FF FF 7F
  can0  09F80223   [8]  FF FF FF FF FF FF FF FF
  can0  09F11223   [8]  FF FF FF FF 7F 2F F6 FF
  can0  09FD0223   [8]  62 05 00 0D B7 FA FF FF
  can0  09F11323   [8]  6F 1E BD FE FF FF FF FF
  can0  09F11223   [8]  FF FF FF FF 7F 2F F6 FF
  can0  09F11323   [8]  70 34 E2 FE FF FF FF FF
  can0  09F80123   [8]  FF FF FF 7F FF FF FF 7F
  can0  09F80223   [8]  FF FF FF FF FF FF FF FF
  can0  09F11223   [8]  FF FF FF FF 7F 2F F6 FF
  can0  09FD0223   [8]  63 FF FF FF FF F8 FF FF
  can0  09F11323   [8]  71 D7 F5 FE FF FF FF FF
  can0  15FD0723   [8]  AF C1 9B 73 FF 7F E9 03
  can0  09F11223   [8]  FF FF FF FF 7F 2F F6 FF
  can0  09F11323   [8]  72 00 00 00 00 FF FF FF
  can0  09F80123   [8]  FF FF FF 7F FF FF FF 7F
  can0  09F80223   [8]  FF FF FF FF FF FF FF FF
  can0  09F11223   [8]  FF FF FF FF 7F 2F F6 FF
  can0  09F11323   [8]  73 16 25 00 00 FF FF FF
  can0  09F11223   [8]  FF FF FF FF 7F 2F F6 FF
  can0  09FD0223   [8]  64 00 00 7A F4 FA FF FF
  can0  09F11323   [8]  74 74 11 00 00 FF FF FF
  can0  09F80123   [8]  FF FF FF 7F FF FF FF 7F
  can0  09F80223   [8]  FF FF FF FF FF FF FF FF
  can0  09F11223   [8]  FF FF FF FF 7F 2F F6 FF
  can0  09F11323   [8]  75 5B 4C 00 00 FF FF FF
  can0  09F11223   [8]  FF FF FF FF 7F 2F F6 FF
  can0  09FD0223   [8]  65 FF FF FF FF F8 FF FF
  can0  0DF01023   [8]  FF F0 FF FF FF FF FF FF
  can0  0DF80923   [8]  FF FF FF FF FF FF FF 7F
  can0  1DF11A23   [8]  59 F5 A9 42 2F F6 FF FF
  can0  19FD1323   [8]  20 1E F0 FF FF FF FF FF
  can0  0DF11923   [8]  59 FF 7F FF 7F FF 7F FF
  can0  09F11323   [8]  76 74 11 00 00 FF FF FF
  can0  09F80123   [8]  FF FF FF 7F FF FF FF 7F
  can0  09F80223   [8]  FF FF FF FF FF FF FF FF
  can0  19FA0323   [8]  FF DB FF 7F FF 7F FF 7F
  can0  15FD0723   [8]  B0 C1 9B 73 FF 7F E9 03
  can0  09F11223   [8]  FF FF FF FF 7F 2F F6 FF
  can0  19FD1323   [8]  21 FF FF FF FF 7F FF FF
  can0  19FD1323   [8]  22 FF 7F 0A 00 0D B7 FA
  can0  19FD1323   [8]  23 FF FF E9 03 9B 73 02
  can0  19FD1323   [8]  24 01 02 01 FF FF FF FF
  can0  0DF80523   [8]  20 2B FF FF FF FF FF FF
  can0  0DF80523   [8]  21 FF FF FF FF FF FF FF
  can0  0DF80523   [8]  22 FF 7F FF FF FF FF FF
  can0  0DF80523   [8]  23 FF FF 7F FF FF FF FF
  can0  0DF80523   [8]  24 FF FF FF 7F 03 FC 00
  can0  0DF80523   [8]  25 FF 7F FF 7F FF FF FF
  can0  0DF80523   [8]  26 7F 00 FF FF FF FF FF
  can0  19FA0423   [8]  20 03 FF FF 00 FF FF FF
  can0  09F11323   [8]  77 B7 98 00 00 FF FF FF
  can0  09F11223   [8]  FF FF FF FF 7F 2F F6 FF
  can0  09F11323   [8]  78 87 F6 00 00 FF FF FF
  can0  09F80123   [8]  FF FF FF 7F FF FF FF 7F
  can0  09F80223   [8]  FF FF FF FF FF FF FF FF
  can0  09F11223   [8]  FF FF FF FF 7F 2F F6 FF
  can0  09FD0223   [8]  66 0A 00 0D B7 FA FF FF
  can0  09F11323   [8]  79 70 D1 00 00 FF FF FF
  can0  09F11223   [8]  FF FF FF FF 7F 2F F6 FF
  can0  09F11323   [8]  7A E2 42 01 00 FF FF FF
  can0  09F80123   [8]  FF FF FF 7F FF FF FF 7F
  can0  09F80223   [8]  FF FF FF FF FF FF FF FF
  can0  09F11223   [8]  FF FF FF FF 7F 2F F6 FF
  can0  09FD0223   [8]  67 FF FF FF FF F8 FF FF
  can0  09F11323   [8]  7B 87 F6 00 00 FF FF FF
  can0  15FD0723   [8]  B1 C1 9B 73 FF 7F E9 03
  can0  09F11223   [8]  FF FF FF FF 7F 2F F6 FF
  can0  09F11323   [8]  7C 16 25 00 00 FF FF FF
  can0  09F80123   [8]  FF FF FF 7F FF FF FF 7F
  can0  09F80223   [8]  FF FF FF FF FF FF FF FF
  can0  09F11223   [8]  FF FF FF FF 7F 2F F6 FF
  can0  09F11323   [8]  7D B9 38 00 00 FF FF FF
  can0  09F11223   [8]  FF FF FF FF 7F 2F F6 FF
  can0  09FD0223   [8]  68 0A 00 0D B7 FA FF FF
  can0  09F11323   [8]  7E 14 85 00 00 FF FF FF
  can0  09F80123   [8]  FF FF FF 7F FF FF FF 7F
  can0  09F80223   [8]  FF FF FF FF FF FF FF FF
  can0  09F11223   [8]  FF FF FF FF 7F 2F F6 FF
  can0  09F11323   [8]  7F 72 71 00 00 FF FF FF
  can0  09F11223   [8]  FF FF FF FF 7F 2F F6 FF
  can0  09FD0223   [8]  69 FF FF FF FF F8 FF FF
  can0  0DF01023   [8]  FF F0 FF FF FF FF FF FF
  can0  0DF80923   [8]  FF FF FF FF FF FF FF 7F
  can0  1DF11A23   [8]  5A F5 A9 42 2F F6 FF FF
  can0  19FD1323   [8]  40 1E F0 FF FF FF FF FF
  can0  0DF11923   [8]  5A FF 7F FF 7F FF 7F FF
  can0  09F11323   [8]  80 CD BD 00 00 FF FF FF
  can0  09F80123   [8]  FF FF FF 7F FF FF FF 7F
  can0  09F80223   [8]  FF FF FF FF FF FF FF FF
  can0  19FA0323   [8]  FF DB FF 7F FF 7F FF 7F
  can0  15FD0723   [8]  B2 C1 9B 73 FF 7F E9 03
  can0  15FD0823   [8]  FF 00 01 9B 73 FF FF FF
  can0  15FD0A23   [8]  FF 00 00 54 47 0F 00 FF
  can0  09F11223   [8]  FF FF FF FF 7F 2F F6 FF
  can0  19FD1323   [8]  41 FF FF FF FF 7F FF FF
  can0  19FD1323   [8]  42 FF 7F 00 00 7A F4 FA
  can0  19FD1323   [8]  43 FF FF E9 03 9B 73 02
  can0  19FD1323   [8]  44 01 02 01 FF FF FF FF
  can0  0DF80523   [8]  40 2B FF FF FF FF FF FF
  can0  0DF80523   [8]  41 FF FF FF FF FF FF FF
  can0  0DF80523   [8]  42 FF 7F FF FF FF FF FF
  can0  0DF80523   [8]  43 FF FF 7F FF FF FF FF
  can0  0DF80523   [8]  44 FF FF FF 7F 03 FC 00
  can0  0DF80523   [8]  45 FF 7F FF 7F FF FF FF
  can0  0DF80523   [8]  46 7F 00 FF FF FF FF FF
  can0  19FA0423   [8]  40 03 FF FF 00 FF FF FF
  can0  09F11323   [8]  81 87 F6 00 00 FF FF FF
  can0  09F11223   [8]  FF FF FF FF 7F 2F F6 FF
  can0  09F11323   [8]  82 70 D1 00 00 FF FF FF
  can0  09F80123   [8]  FF FF FF 7F FF FF FF 7F
  can0  09F80223   [8]  FF FF FF FF FF FF FF FF
  can0  09F11223   [8]  FF FF FF FF 7F 2F F6 FF
  can0  09FD0223   [8]  6A 00 00 7A F4 FA FF FF
  can0  09F11323   [8]  83 CD BD 00 00 FF FF FF
  can0  09F11223   [8]  FF FF FF FF 7F 2F F6 FF
  can0  09F11323   [8]  84 5B 4C 00 00 FF FF FF
  can0  09F80123   [8]  FF FF FF 7F FF FF FF 7F
  can0  09F80223   [8]  FF FF FF FF FF FF FF FF
  can0  09F11223   [8]  FF FF FF FF 7F 2F F6 FF
  can0  09FD0223   [8]  6B FF FF FF FF F8 FF FF
  can0  09F11323   [8]  85 CF 5D 00 00 FF FF FF
  can0  15FD0723   [8]  B3 C1 9B 73 FF 7F E9 03
  can0  09F11223   [8]  FF FF FF FF 7F 2F F6 FF
  can0  09F11323   [8]  86 CF 5D 00 00 FF FF FF
  can0  09F80123   [8]  FF FF FF 7F FF FF FF 7F
  can0  09F80223   [8]  FF FF FF FF FF FF FF FF
  can0  09F11223   [8]  FF FF FF FF 7F 2F F6 FF
  can0  09F11323   [8]  87 B9 38 00 00 FF FF FF
  can0  09F11223   [8]  FF FF FF FF 7F 2F F6 FF
  can0  09FD0223   [8]  6C 00 00 7A F4 FA FF FF
  can0  09F11323   [8]  88 72 71 00 00 FF FF FF
  can0  09F80123   [8]  FF FF FF 7F FF FF FF 7F
  can0  09F80223   [8]  FF FF FF FF FF FF FF FF
  can0  09F11223   [8]  FF FF FF FF 7F 2F F6 FF
  can0  09F11323   [8]  89 2B AA 00 00 FF FF FF
  can0  09F11223   [8]  FF FF FF FF 7F 2F F6 FF
  can0  09FD0223   [8]  6D FF FF FF FF F8 FF FF
  can0  0DF01023   [8]  FF F0 FF FF FF FF FF FF
  can0  0DF80923   [8]  FF FF FF FF FF FF FF 7F
  can0  1DF11A23   [8]  5B F5 A9 42 2F F6 FF FF
  can0  19FD1323   [8]  60 1E F0 FF FF FF FF FF
  can0  0DF11923   [8]  5B FF 7F FF 7F FF 7F FF
  can0  09F11323   [8]  8A 87 F6 00 00 FF FF FF
  can0  09F80123   [8]  FF FF FF 7F FF FF FF 7F
  can0  09F80223   [8]  FF FF FF FF FF FF FF FF
  can0  19FA0323   [8]  FF DB FF 7F FF 7F FF 7F
  can0  15FD0723   [8]  B4 C1 9B 73 FF 7F E9 03
  can0  09F11223   [8]  FF FF FF FF 7F 2F F6 FF
  can0  19FD1323   [8]  61 FF FF FF FF 7F FF FF
  can0  19FD1323   [8]  62 FF 7F 00 00 7A F4 FA
  can0  19FD1323   [8]  63 FF FF E9 03 9B 73 02
  can0  19FD1323   [8]  64 01 02 01 FF FF FF FF
  can0  0DF80523   [8]  60 2B FF FF FF FF FF FF
  can0  0DF80523   [8]  61 FF FF FF FF FF FF FF
  can0  0DF80523   [8]  62 FF 7F FF FF FF FF FF
  can0  0DF80523   [8]  63 FF FF 7F FF FF FF FF
  can0  0DF80523   [8]  64 FF FF FF 7F 03 FC 00
  can0  0DF80523   [8]  65 FF 7F FF 7F FF FF FF
  can0  0DF80523   [8]  66 7F 00 FF FF FF FF FF
  can0  19FA0423   [8]  60 03 FF FF 00 FF FF FF
  can0  09F11323   [8]  8B 5B 4C 00 00 FF FF FF
  can0  09F11223   [8]  FF FF FF FF 7F 2F F6 FF
  can0  09F11323   [8]  8C 33 42 FF FF FF FF FF
  can0  09F80123   [8]  FF FF FF 7F FF FF FF 7F
  can0  09F80223   [8]  FF FF FF FF FF FF FF FF
  can0  09F11223   [8]  FF FF FF FF 7F 2F F6 FF
  can0  09FD0223   [8]  6E 00 00 7A F4 FA FF FF
  can0  09F11323   [8]  8D 74 11 00 00 FF FF FF
  can0  09F11223   [8]  FF FF FF FF 7F 2F F6 FF
  can0  09F11323   [8]  8E 13 E5 00 00 FF FF FF
  can0  09F80123   [8]  FF FF FF 7F FF FF FF 7F
  can0  09F80223   [8]  FF FF FF FF FF FF FF FF
  can0  09F11223   [8]  FF FF FF FF 7F 2F F6 FF
  can0  09FD0223   [8]  6F FF FF FF FF F8 FF FF
  can0  09F11323   [8]  8F 29 0A 01 00 FF FF FF
  can0  15FD0723   [8]  B5 C1 9B 73 FF 7F E9 03
  can0  09F11223   [8]  FF FF FF FF 7F 2F F6 FF
  can0  09F11323   [8]  90 2B AA 00 00 FF FF FF
  can0  09F80123   [8]  FF FF FF 7F FF FF FF 7F
  can0  09F80223   [8]  FF FF FF FF FF FF FF FF
  can0  09F11223   [8]  FF FF FF FF 7F 2F F6 FF
  can0  09F11323   [8]  91 70 D1 00 00 FF FF FF
  can0  09F11223   [8]  FF FF FF FF 7F 2F F6 FF
  can0  09FD0223   [8]  70 00 00 7A F4 FA FF FF
  can0  09F11323   [8]  92 70 D1 00 00 FF FF FF
  can0  09F80123   [8]  FF FF FF 7F FF FF FF 7F
  can0  09F80223   [8]  FF FF FF FF FF FF FF FF
  can0  09F11223   [8]  FF FF FF FF 7F 2F F6 FF
  can0  09F11323   [8]  93 2B AA 00 00 FF FF FF
  can0  09F11223   [8]  FF FF FF FF 7F 2F F6 FF
  can0  09FD0223   [8]  71 FF FF FF FF F8 FF FF
  can0  0DF01023   [8]  FF F0 FF FF FF FF FF FF
  can0  0DF80923   [8]  FF FF FF FF FF FF FF 7F
  can0  1DF11A23   [8]  5C F5 A9 42 2F F6 FF FF
  can0  19FD1323   [8]  80 1E F0 FF FF FF FF FF
  can0  0DF11923   [8]  5C FF 7F FF 7F FF 7F FF
  can0  09F11323   [8]  94 29 0A 01 00 FF FF FF
  can0  09F80123   [8]  FF FF FF 7F FF FF FF 7F
  can0  09F80223   [8]  FF FF FF FF FF FF FF FF
  can0  19FA0323   [8]  FF DB FF 7F FF 7F FF 7F
  can0  15FD0723   [8]  B6 C1 9B 73 FF 7F E9 03
  can0  15FD0823   [8]  FF 00 01 9B 73 FF FF FF
  can0  15FD0A23   [8]  FF 00 00 54 47 0F 00 FF
  can0  09F11223   [8]  FF FF FF FF 7F 2F F6 FF
  can0  19FD1323   [8]  81 FF FF FF FF 7F FF FF
  can0  19FD1323   [8]  82 FF 7F 0A 00 0D B7 FA
  can0  19FD1323   [8]  83 FF FF E9 03 9B 73 02
  can0  19FD1323   [8]  84 01 02 01 FF FF FF FF
  can0  0DF80523   [8]  80 2B FF FF FF FF FF FF
  can0  0DF80523   [8]  81 FF FF FF FF FF FF FF
  can0  0DF80523   [8]  82 FF 7F FF FF FF FF FF
  can0  0DF80523   [8]  83 FF FF 7F FF FF FF FF
  can0  0DF80523   [8]  84 FF FF FF 7F 03 FC 00
  can0  0DF80523   [8]  85 FF 7F FF 7F FF FF FF
  can0  0DF80523   [8]  86 7F 00 FF FF FF FF FF
  can0  19FA0423   [8]  80 03 FF FF 00 FF FF FF
  can0  09F11323   [8]  95 13 E5 00 00 FF FF FF
  can0  09F11223   [8]  FF FF FF FF 7F 2F F6 FF
  can0  09F11323   [8]  96 CD BD 00 00 FF FF FF
  can0  09F80123   [8]  FF FF FF 7F FF FF FF 7F
  can0  09F80223   [8]  FF FF FF FF FF FF FF FF
  can0  09F11223   [8]  FF FF FF FF 7F 2F F6 FF
  can0  09FD0223   [8]  72 0A 00 0D B7 FA FF FF
  can0  09F11323   [8]  97 13 E5 00 00 FF FF FF
  can0  09F11223   [8]  FF FF FF FF 7F 2F F6 FF
  can0  09F11323   [8]  98 70 D1 00 00 FF FF FF
  can0  09F80123   [8]  FF FF FF 7F FF FF FF 7F
  can0  09F80223   [8]  FF FF FF FF FF FF FF FF
  can0  09F11223   [8]  FF FF FF FF 7F 2F F6 FF
  can0  09FD0223   [8]  73 FF FF FF FF F8 FF FF
  can0  09F11323   [8]  99 70 D1 00 00 FF FF FF
  can0  15FD0723   [8]  B7 C1 9B 73 FF 7F E9 03
  can0  09F11223   [8]  FF FF FF FF 7F 2F F6 FF
  can0  09F11323   [8]  9A 29 0A 01 00 FF FF FF
  can0  09F80123   [8]  FF FF FF 7F FF FF FF 7F
  can0  09F80223   [8]  FF FF FF FF FF FF FF FF
  can0  09F11223   [8]  FF FF FF FF 7F 2F F6 FF
  can0  09F11323   [8]  9B 2B AA 00 00 FF FF FF
  can0  09F11223   [8]  FF FF FF FF 7F 2F F6 FF
  can0  09FD0223   [8]  74 00 00 7A F4 FA FF FF
  can0  09F11323   [8]  9C 70 D1 00 00 FF FF FF
  can0  09F80123   [8]  FF FF FF 7F FF FF FF 7F
  can0  09F80223   [8]  FF FF FF FF FF FF FF FF
  can0  09F11223   [8]  FF FF FF FF 7F 2F F6 FF
  can0  09F11323   [8]  9D CD BD 00 00 FF FF FF
  can0  09F11223   [8]  FF FF FF FF 7F 2F F6 FF
  can0  09FD0223   [8]  75 FF FF FF FF F8 FF FF
  can0  0DF01023   [8]  FF F0 FF FF FF FF FF FF
  can0  0DF80923   [8]  FF FF FF FF FF FF FF 7F
  can0  1DF11A23   [8]  5D F5 A9 42 2F F6 FF FF
  can0  19FD1323   [8]  A0 1E F0 FF FF FF FF FF
  can0  0DF11923   [8]  5D FF 7F FF 7F FF 7F FF
  can0  09F11323   [8]  9E CD BD 00 00 FF FF FF
  can0  09F80123   [8]  FF FF FF 7F FF FF FF 7F
  can0  09F80223   [8]  FF FF FF FF FF FF FF FF
  can0  19FA0323   [8]  FF DB FF 7F FF 7F FF 7F
  can0  15FD0723   [8]  B8 C1 9B 73 FF 7F E9 03
  can0  09F11223   [8]  FF FF FF FF 7F 2F F6 FF
  can0  19FD1323   [8]  A1 FF FF FF FF 7F FF FF
  can0  19FD1323   [8]  A2 FF 7F 00 00 7A F4 FA
  can0  19FD1323   [8]  A3 FF FF E9 03 9B 73 02
  can0  19FD1323   [8]  A4 01 02 01 FF FF FF FF
  can0  0DF80523   [8]  A0 2B FF FF FF FF FF FF
  can0  0DF80523   [8]  A1 FF FF FF FF FF FF FF
  can0  0DF80523   [8]  A2 FF 7F FF FF FF FF FF
  can0  0DF80523   [8]  A3 FF FF 7F FF FF FF FF
  can0  0DF80523   [8]  A4 FF FF FF 7F 03 FC 00
  can0  0DF80523   [8]  A5 FF 7F FF 7F FF FF FF
  can0  0DF80523   [8]  A6 7F 00 FF FF FF FF FF
  can0  19FA0423   [8]  A0 03 FF FF 00 FF FF FF
  can0  09F11323   [8]  9F CF 5D 00 00 FF FF FF
  can0  09F11223   [8]  FF FF FF FF 7F 2F F6 FF
  can0  09F11323   [8]  A0 00 00 00 00 FF FF FF
  can0  09F80123   [8]  FF FF FF 7F FF FF FF 7F
  can0  09F80223   [8]  FF FF FF FF FF FF FF FF
  can0  09F11223   [8]  FF FF FF FF 7F 2F F6 FF
  can0  09FD0223   [8]  76 00 00 7A F4 FA FF FF
  can0  09F11323   [8]  A1 5B 4C 00 00 FF FF FF
  can0  09F11223   [8]  FF FF FF FF 7F 2F F6 FF
  can0  09F11323   [8]  A2 87 F6 00 00 FF FF FF
  can0  09F80123   [8]  FF FF FF 7F FF FF FF 7F
  can0  09F80223   [8]  FF FF FF FF FF FF FF FF
  can0  09F11223   [8]  FF FF FF FF 7F 2F F6 FF
  can0  09FD0223   [8]  77 FF FF FF FF F8 FF FF
  can0  09F11323   [8]  A3 29 0A 01 00 FF FF FF
  can0  15FD0723   [8]  B9 C1 9B 73 FF 7F E9 03
  can0  09F11223   [8]  FF FF FF FF 7F 2F F6 FF
  can0  09F11323   [8]  A4 CD BD 00 00 FF FF FF
  can0  09F80123   [8]  FF FF FF 7F FF FF FF 7F
  can0  09F80223   [8]  FF FF FF FF FF FF FF FF
  can0  09F11223   [8]  FF FF FF FF 7F 2F F6 FF
  can0  09F11323   [8]  A5 16 25 00 00 FF FF FF
  can0  09F11223   [8]  FF FF FF FF 7F 2F F6 FF
  can0  09FD0223   [8]  78 00 00 7A F4 FA FF FF
  can0  09F11323   [8]  A6 EA DA FF FF FF FF FF
  can0  09F80123   [8]  FF FF FF 7F FF FF FF 7F
  can0  09F80223   [8]  FF FF FF FF FF FF FF FF
  can0  09F11223   [8]  FF FF FF FF 7F 2F F6 FF
  can0  09F11323   [8]  A7 A5 B3 FF FF FF FF FF
  can0  09F11223   [8]  FF FF FF FF 7F 2F F6 FF
  can0  09FD0223   [8]  79 FF FF FF FF F8 FF FF
  can0  0DF01023   [8]  FF F0 FF FF FF FF FF FF
  can0  0DF80923   [8]  FF FF FF FF FF FF FF 7F
  can0  1DF11A23   [8]  5E F5 A9 42 2F F6 FF FF
  can0  19FD1323   [8]  C0 1E F0 FF FF FF FF FF
  can0  0DF11923   [8]  5E FF 7F FF 7F FF 7F FF
  can0  09F11323   [8]  A8 D5 55 FF FF FF FF FF
  can0  09F80123   [8]  FF FF FF 7F FF FF FF 7F
  can0  09F80223   [8]  FF FF FF FF FF FF FF FF
  can0  19FA0323   [8]  FF DB FF 7F FF 7F FF 7F
  can0  15FD0723   [8]  BA C1 9B 73 FF 7F E9 03
  can0  15FD0823   [8]  FF 00 01 9B 73 FF FF FF
  can0  15FD0A23   [8]  FF 00 00 54 47 0F 00 FF
  can0  09F11223   [8]  FF FF FF FF 7F 2F F6 FF
  can0  19FD1323   [8]  C1 FF FF FF FF 7F FF FF
  can0  19FD1323   [8]  C2 FF 7F 00 00 7A F4 FA
  can0  19FD1323   [8]  C3 FF FF E9 03 9B 73 02
  can0  19FD1323   [8]  C4 01 02 01 FF FF FF FF
  can0  0DF80523   [8]  C0 2B FF FF FF FF FF FF
  can0  0DF80523   [8]  C1 FF FF FF FF FF FF FF
  can0  0DF80523   [8]  C2 FF 7F FF FF FF FF FF
  can0  0DF80523   [8]  C3 FF FF 7F FF FF FF FF
  can0  0DF80523   [8]  C4 FF FF FF 7F 03 FC 00
  can0  0DF80523   [8]  C5 FF 7F FF 7F FF FF FF
  can0  0DF80523   [8]  C6 7F 00 FF FF FF FF FF
  can0  19FA0423   [8]  C0 03 FF FF 00 FF FF FF
  can0  09F11323   [8]  A9 EA DA FF FF FF FF FF
  can0  09F11223   [8]  FF FF FF FF 7F 2F F6 FF
  can0  09F11323   [8]  AA EA DA FF FF FF FF FF
  can0  09F80123   [8]  FF FF FF 7F FF FF FF 7F
  can0  09F80223   [8]  FF FF FF FF FF FF FF FF
  can0  09F11223   [8]  FF FF FF FF 7F 2F F6 FF
  can0  09FD0223   [8]  7A 00 00 7A F4 FA FF FF
  can0  09F11323   [8]  AB 5B 4C 00 00 FF FF FF
  can0  09F11223   [8]  FF FF FF FF 7F 2F F6 FF
  can0  09F11323   [8]  AC B9 38 00 00 FF FF FF
  can0  09F80123   [8]  FF FF FF 7F FF FF FF 7F
  can0  09F80223   [8]  FF FF FF FF FF FF FF FF
  can0  09F11223   [8]  FF FF FF FF 7F 2F F6 FF
  can0  09FD0223   [8]  7B FF FF FF FF F8 FF FF
  can0  09F11323   [8]  AD B9 38 00 00 FF FF FF
  can0  15FD0723   [8]  BB C1 9B 73 FF 7F E9 03
  can0  09F11223   [8]  FF FF FF FF 7F 2F F6 FF
  can0  09F11323   [8]  AE 16 25 00 00 FF FF FF
  can0  09F80123   [8]  FF FF FF 7F FF FF FF 7F
  can0  09F80223   [8]  FF FF FF FF FF FF FF FF
  can0  09F11223   [8]  FF FF FF FF 7F 2F F6 FF
  can0  09F11323   [8]  AF 72 71 00 00 FF FF FF
  can0  09F11223   [8]  FF FF FF FF 7F 2F F6 FF
  can0  09FD0223   [8]  7C 00 00 7A F4 FA FF FF
  can0  09F11323   [8]  B0 74 11 00 00 FF FF FF
  can0  09F80123   [8]  FF FF FF 7F FF FF FF 7F
  can0  09F80223   [8]  FF FF FF FF FF FF FF FF
  can0  09F11223   [8]  FF FF FF FF 7F 2F F6 FF
  can0  09F11323   [8]  B1 5B 4C 00 00 FF FF FF
  can0  09F11223   [8]  FF FF FF FF 7F 2F F6 FF
  can0  09FD0223   [8]  7D FF FF FF FF F8 FF FF
  can0  0DF01023   [8]  FF F0 FF FF FF FF FF FF
  can0  0DF80923   [8]  FF FF FF FF FF FF FF 7F
  can0  1DF11A23   [8]  5F F5 A9 42 2F F6 FF FF
  can0  19FD1323   [8]  E0 1E F0 FF FF FF FF FF
  can0  0DF11923   [8]  5F FF 7F FF 7F FF 7F FF
  can0  09F11323   [8]  B2 16 25 00 00 FF FF FF
  can0  09F80123   [8]  FF FF FF 7F FF FF FF 7F
  can0  09F80223   [8]  FF FF FF FF FF FF FF FF
  can0  19FA0323   [8]  FF DB FF 7F FF 7F FF 7F
  can0  15FD0723   [8]  BC C1 9B 73 FF 7F E9 03
  can0  09F11223   [8]  FF FF FF FF 7F 2F F6 FF
  can0  19FD1323   [8]  E1 FF FF FF FF 7F FF FF
  can0  19FD1323   [8]  E2 FF 7F 0A 00 0D B7 FA
  can0  19FD1323   [8]  E3 FF FF E9 03 9B 73 02
  can0  19FD1323   [8]  E4 01 02 01 FF FF FF FF
  can0  0DF80523   [8]  E0 2B FF FF FF FF FF FF
  can0  0DF80523   [8]  E1 FF FF FF FF FF FF FF
  can0  0DF80523   [8]  E2 FF 7F FF FF FF FF FF
  can0  0DF80523   [8]  E3 FF FF 7F FF FF FF FF
  can0  0DF80523   [8]  E4 FF FF FF 7F 03 FC 00
  can0  0DF80523   [8]  E5 FF 7F FF 7F FF FF FF
  can0  0DF80523   [8]  E6 7F 00 FF FF FF FF FF
  can0  19FA0423   [8]  E0 03 FF FF 00 FF FF FF
  can0  09F11323   [8]  B3 B9 38 00 00 FF FF FF
  can0  09F11223   [8]  FF FF FF FF 7F 2F F6 FF
  can0  09F11323   [8]  B4 16 25 00 00 FF FF FF
  can0  09F80123   [8]  FF FF FF 7F FF FF FF 7F
  can0  09F80223   [8]  FF FF FF FF FF FF FF FF
  can0  09F11223   [8]  FF FF FF FF 7F 2F F6 FF
  can0  09FD0223   [8]  7E 00 00 7A F4 FA FF FF
  can0  09F11323   [8]  B5 5B 4C 00 00 FF FF FF
  can0  09F11223   [8]  FF FF FF FF 7F 2F F6 FF
  can0  09F11323   [8]  B6 33 42 FF FF FF FF FF
  can0  09F80123   [8]  FF FF FF 7F FF FF FF 7F
  can0  09F80223   [8]  FF FF FF FF FF FF FF FF
  can0  09F11223   [8]  FF FF FF FF 7F 2F F6 FF
  can0  09FD0223   [8]  7F FF FF FF FF F8 FF FF
  can0  09F11323   [8]  B7 90 2E FF FF FF FF FF
  can0  15FD0723   [8]  BD C1 9B 73 FF 7F E9 03
  can0  09F11223   [8]  FF FF FF FF 7F 2F F6 FF
  can0  09F11323   [8]  B8 79 09 FF FF FF FF FF
  can0  09F80123   [8]  FF FF FF 7F FF FF FF 7F
  can0  09F80223   [8]  FF FF FF FF FF FF FF FF
  can0  09F11223   [8]  FF FF FF FF 7F 2F F6 FF
  can0  09F11323   [8]  B9 31 A2 FF FF FF FF FF
  can0  09F11223   [8]  FF FF FF FF 7F 2F F6 FF
  can0  09FD0223   [8]  80 00 00 7A F4 FA FF FF
  can0  09F11323   [8]  BA 49 67 FF FF FF FF FF
  can0  09F80123   [8]  FF FF FF 7F FF FF FF 7F
  can0  09F80223   [8]  FF FF FF FF FF FF FF FF
  can0  09F11223   [8]  FF FF FF FF 7F 2F F6 FF
  can0  09F11323   [8]  BB EC 7A FF FF FF FF FF
  can0  09F11223   [8]  FF FF FF FF 7F 2F F6 FF
  can0  09FD0223   [8]  81 FF FF FF FF F8 FF FF
  can0  0DF01023   [8]  FF F0 FF FF FF FF FF FF
  can0  0DF80923   [8]  FF FF FF FF FF FF FF 7F
  can0  1DF11A23   [8]  60 F5 A9 42 2F F6 FF FF
  can0  19FD1323   [8]  00 1E F0 FF FF FF FF FF
  can0  0DF11923   [8]  60 FF 7F FF 7F FF 7F FF
  can0  09F11323   [8]  BC 8C EE FF FF FF FF FF
  can0  09F80123   [8]  FF FF FF 7F FF FF FF 7F
  can0  09F80223   [8]  FF FF FF FF FF FF FF FF
  can0  19FA0323   [8]  FF DB FF 7F FF 7F FF 7F
  can0  15FD0723   [8]  BE C1 9B 73 FF 7F E9 03
  can0  15FD0823   [8]  FF 00 01 9B 73 FF FF FF
  can0  15FD0A23   [8]  FF 00 00 B8 47 0F 00 FF
  can0  09F11223   [8]  FF FF FF FF 7F 2F F6 FF
  can0  19FD1323   [8]  01 FF FF FF FF 7F FF FF
  can0  19FD1323   [8]  02 FF 7F 00 00 7A F4 FA
  can0  19FD1323   [8]  03 FF FF E9 03 9B 73 02
  can0  19FD1323   [8]  04 01 02 01 FF FF FF FF
  can0  0DF80523   [8]  00 2B FF FF FF FF FF FF
  can0  0DF80523   [8]  01 FF FF FF FF FF FF FF
  can0  0DF80523   [8]  02 FF 7F FF FF FF FF FF
  can0  0DF80523   [8]  03 FF FF 7F FF FF FF FF
  can0  0DF80523   [8]  04 FF FF FF 7F 03 FC 00
  can0  0DF80523   [8]  05 FF 7F FF 7F FF FF FF
  can0  0DF80523   [8]  06 7F 00 FF FF FF FF FF
  can0  19FA0423   [8]  00 03 FF FF 00 FF FF FF
  can0  09F11323   [8]  BD 74 11 00 00 FF FF FF
  can0  09F11223   [8]  FF FF FF FF 7F 2F F6 FF
  can0  09F11323   [8]  BE 14 85 00 00 FF FF FF
  can0  09F80123   [8]  FF FF FF 7F FF FF FF 7F
  can0  09F80223   [8]  FF FF FF FF FF FF FF FF
  can0  09F11223   [8]  FF FF FF FF 7F 2F F6 FF
  can0  09FD0223   [8]  82 00 00 7A F4 FA FF FF
  can0  09F11323   [8]  BF 16 25 00 00 FF FF FF
  can0  09F11223   [8]  FF FF FF FF 7F 2F F6 FF
  can0  09F11323   [8]  C0 74 11 00 00 FF FF FF
  can0  09F80123   [8]  FF FF FF 7F FF FF FF 7F
  can0  09F80223   [8]  FF FF FF FF FF FF FF FF
  can0  09F11223   [8]  FF FF FF FF 7F 2F F6 FF
  can0  09FD0223   [8]  83 FF FF FF FF F8 FF FF
  can0  09F11323   [8]  C1 00 00 00 00 FF FF FF
  can0  15FD0723   [8]  BF C1 9B 73 FF 7F E9 03
  can0  09F11223   [8]  FF FF FF FF 7F 2F F6 FF
  can0  09F11323   [8]  C2 A5 B3 FF FF FF FF FF
  can0  09F80123   [8]  FF FF FF 7F FF FF FF 7F
  can0  09F80223   [8]  FF FF FF FF FF FF FF FF
  can0  09F11223   [8]  FF FF FF FF 7F 2F F6 FF
  can0  09F11323   [8]  C3 5B 4C 00 00 FF FF FF
  can0  09F11223   [8]  FF FF FF FF 7F 2F F6 FF
  can0  09FD0223   [8]  84 00 00 7A F4 FA FF FF
  can0  09F11323   [8]  C4 74 11 00 00 FF FF FF
  can0  09F80123   [8]  FF FF FF 7F FF FF FF 7F
  can0  09F80223   [8]  FF FF FF FF FF FF FF FF
  can0  09F11223   [8]  FF FF FF FF 7F 2F F6 FF
  can0  09F11323   [8]  C5 16 25 00 00 FF FF FF
  can0  09F11223   [8]  FF FF FF FF 7F 2F F6 FF
  can0  09FD0223   [8]  85 FF FF FF FF F8 FF FF
  can0  0DF01023   [8]  FF F0 FF FF FF FF FF FF
  can0  0DF80923   [8]  FF FF FF FF FF FF FF 7F
  can0  1DF11A23   [8]  61 F5 A9 42 2F F6 FF FF
  can0  19FD1323   [8]  20 1E F0 FF FF FF FF FF
  can0  0DF11923   [8]  61 FF 7F FF 7F FF 7F FF
  can0  09F11323   [8]  C6 16 25 00 00 FF FF FF
  can0  09F80123   [8]  FF FF FF 7F FF FF FF 7F
  can0  09F80223   [8]  FF FF FF FF FF FF FF FF
  can0  19FA0323   [8]  FF DB FF 7F FF 7F FF 7F
  can0  15FD0723   [8]  C0 C1 9B 73 FF 7F E9 03
  can0  09F11223   [8]  FF FF FF FF 7F 2F F6 FF
  can0  19FD1323   [8]  21 FF FF FF FF 7F FF FF
  can0  19FD1323   [8]  22 FF 7F 00 00 7A F4 FA
  can0  19FD1323   [8]  23 FF FF E9 03 9B 73 02
  can0  19FD1323   [8]  24 01 02 01 FF FF FF FF
  can0  0DF80523   [8]  20 2B FF FF FF FF FF FF
  can0  0DF80523   [8]  21 FF FF FF FF FF FF FF
  can0  0DF80523   [8]  22 FF 7F FF FF FF FF FF
  can0  0DF80523   [8]  23 FF FF 7F FF FF FF FF
  can0  0DF80523   [8]  24 FF FF FF 7F 03 FC 00
  can0  0DF80523   [8]  25 FF 7F FF 7F FF FF FF
  can0  0DF80523   [8]  26 7F 00 FF FF FF FF FF
  can0  19FA0423   [8]  20 03 FF FF 00 FF FF FF
  can0  09F11323   [8]  C7 72 71 00 00 FF FF FF
  can0  09F11223   [8]  FF FF FF FF 7F 2F F6 FF
  can0  09F11323   [8]  C8 B9 38 00 00 FF FF FF
  can0  09F80123   [8]  FF FF FF 7F FF FF FF 7F
  can0  09F80223   [8]  FF FF FF FF FF FF FF FF
  can0  09F11223   [8]  FF FF FF FF 7F 2F F6 FF
  can0  09FD0223   [8]  86 00 00 7A F4 FA FF FF
  can0  09F11323   [8]  C9 74 11 00 00 FF FF FF
  can0  09F11223   [8]  FF FF FF FF 7F 2F F6 FF
  can0  09F11323   [8]  CA 72 71 00 00 FF FF FF
  can0  09F80123   [8]  FF FF FF 7F FF FF FF 7F
  can0  09F80223   [8]  FF FF FF FF FF FF FF FF
  can0  09F11223   [8]  FF FF FF FF 7F 2F F6 FF
  can0  09FD0223   [8]  87 FF FF FF FF F8 FF FF
  can0  09F11323   [8]  CB 13 E5 00 00 FF FF FF
  can0  15FD0723   [8]  C1 C1 9B 73 FF 7F E9 03
  can0  09F11223   [8]  FF FF FF FF 7F 2F F6 FF
  can0  09F11323   [8]  CC 14 85 00 00 FF FF FF
  can0  09F80123   [8]  FF FF FF 7F FF FF FF 7F
  can0  09F80223   [8]  FF FF FF FF FF FF FF FF
  can0  09F11223   [8]  FF FF FF FF 7F 2F F6 FF
  can0  09F11323   [8]  CD E2 42 01 00 FF FF FF
  can0  09F11223   [8]  FF FF FF FF 7F 2F F6 FF
  can0  09FD0223   [8]  88 00 00 7A F4 FA FF FF
  can0  09F11323   [8]  CE CD BD 00 00 FF FF FF
  can0  09F80123   [8]  FF FF FF 7F FF FF FF 7F
  can0  09F80223   [8]  FF FF FF FF FF FF FF FF
  can0  09F11223   [8]  FF FF FF FF 7F 2F F6 FF
  can0  09F11323   [8]  CF B7 98 00 00 FF FF FF
  can0  09F11223   [8]  FF FF FF FF 7F 2F F6 FF
  can0  09FD0223   [8]  89 FF FF FF FF F8 FF FF
  can0  0DF01023   [8]  FF F0 FF FF FF FF FF FF
  can0  0DF80923   [8]  FF FF FF FF FF FF FF 7F
  can0  1DF11A23   [8]  62 F5 A9 42 2F F6 FF FF
  can0  19FD1323   [8]  40 1E F0 FF FF FF FF FF
  can0  0DF11923   [8]  62 FF 7F FF 7F FF 7F FF
  can0  09F11323   [8]  D0 85 56 01 00 FF FF FF
  can0  09F80123   [8]  FF FF FF 7F FF FF FF 7F
  can0  09F80223   [8]  FF FF FF FF FF FF FF FF
  can0  19FA0323   [8]  FF DB FF 7F FF 7F FF 7F
  can0  15FD0723   [8]  C2 C1 9B 73 FF 7F E9 03
  can0  15FD0823   [8]  FF 00 01 9B 73 FF FF FF
  can0  15FD0A23   [8]  FF 00 00 54 47 0F 00 FF
  can0  09F11223   [8]  FF FF FF FF 7F 2F F6 FF
  can0  19FD1323   [8]  41 FF FF FF FF 7F FF FF
  can0  19FD1323   [8]  42 FF 7F 00 00 7A F4 FA
  can0  19FD1323   [8]  43 FF FF E9 03 9B 73 02
  can0  19FD1323   [8]  44 01 02 01 FF FF FF FF
  can0  19F81423   [8]  20 14 57 38 34 FF 00 00
  can0  19F81423   [8]  21 00 00 00 00 00 00 00
  can0  19F81423   [8]  22 00 00 00 57 38 34 FF
  can0  0DF80523   [8]  40 2B FF FF FF FF FF FF
  can0  0DF80523   [8]  41 FF FF FF FF FF FF FF
  can0  0DF80523   [8]  42 FF 7F FF FF FF FF FF
  can0  0DF80523   [8]  43 FF FF 7F FF FF FF FF
  can0  0DF80523   [8]  44 FF FF FF 7F 03 FC 00
  can0  0DF80523   [8]  45 FF 7F FF 7F FF FF FF
  can0  0DF80523   [8]  46 7F 00 FF FF FF FF FF
  can0  19FA0423   [8]  40 03 FF FF 00 FF FF FF
  can0  09F11323   [8]  D1 85 56 01 00 FF FF FF
  can0  09F11223   [8]  FF FF FF FF 7F 2F F6 FF
  can0  09F11323   [8]  D2 CD BD 00 00 FF FF FF
  can0  09F80123   [8]  FF FF FF 7F FF FF FF 7F
  can0  09F80223   [8]  FF FF FF FF FF FF FF FF
  can0  09F11223   [8]  FF FF FF FF 7F 2F F6 FF
  can0  09FD0223   [8]  8A 00 00 7A F4 FA FF FF
  can0  09F11323   [8]  D3 13 E5 00 00 FF FF FF
  can0  09F11223   [8]  FF FF FF FF 7F 2F F6 FF
  can0  09F11323   [8]  D4 72 71 00 00 FF FF FF
  can0  09F80123   [8]  FF FF FF 7F FF FF FF 7F
  can0  09F80223   [8]  FF FF FF FF FF FF FF FF
  can0  09F11223   [8]  FF FF FF FF 7F 2F F6 FF
  can0  09FD0223   [8]  8B FF FF FF FF F8 FF FF
  can0  09F11323   [8]  D5 CF 5D 00 00 FF FF FF
  can0  15FD0723   [8]  C3 C1 9B 73 FF 7F E9 03
  can0  09F11223   [8]  FF FF FF FF 7F 2F F6 FF
  can0  09F11323   [8]  D6 8C EE FF FF FF FF FF
  can0  09F80123   [8]  FF FF FF 7F FF FF FF 7F
  can0  09F80223   [8]  FF FF FF FF FF FF FF FF
  can0  09F11223   [8]  FF FF FF FF 7F 2F F6 FF
  can0  09F11323   [8]  D7 EA DA FF FF FF FF FF
  can0  09F11223   [8]  FF FF FF FF 7F 2F F6 FF
  can0  09FD0223   [8]  8C 00 00 7A F4 FA FF FF
  can0  09F11323   [8]  D8 EA DA FF FF FF FF FF
  can0  09F80123   [8]  FF FF FF 7F FF FF FF 7F
  can0  09F80223   [8]  FF FF FF FF FF FF FF FF
  can0  09F11223   [8]  FF FF FF FF 7F 2F F6 FF
  can0  09F11323   [8]  D9 CF 5D 00 00 FF FF FF
  can0  09F11223   [8]  FF FF FF FF 7F 2F F6 FF
  can0  09FD0223   [8]  8D FF FF FF FF F8 FF FF
  can0  0DF01023   [8]  FF F0 FF FF FF FF FF FF
  can0  0DF80923   [8]  FF FF FF FF FF FF FF 7F
  can0  1DF11A23   [8]  63 F5 A9 42 2F F6 FF FF
  can0  19FD1323   [8]  60 1E F0 FF FF FF FF FF
  can0  0DF11923   [8]  63 FF 7F FF 7F FF 7F FF
  can0  09F11323   [8]  DA B9 38 00 00 FF FF FF
  can0  09F80123   [8]  FF FF FF 7F FF FF FF 7F
  can0  09F80223   [8]  FF FF FF FF FF FF FF FF
  can0  19FA0323   [8]  FF DB FF 7F FF 7F FF 7F
  can0  15FD0723   [8]  C4 C1 9B 73 FF 7F E9 03
  can0  09F11223   [8]  FF FF FF FF 7F 2F F6 FF
  can0  19FD1323   [8]  61 FF FF FF FF 7F FF FF
  can0  19FD1323   [8]  62 FF 7F 00 00 7A F4 FA
  can0  19FD1323   [8]  63 FF FF E9 03 9B 73 02
  can0  19FD1323   [8]  64 01 02 01 FF FF FF FF
  can0  0DF80523   [8]  60 2B FF FF FF FF FF FF
  can0  0DF80523   [8]  61 FF FF FF FF FF FF FF
  can0  0DF80523   [8]  62 FF 7F FF FF FF FF FF
  can0  0DF80523   [8]  63 FF FF 7F FF FF FF FF
  can0  0DF80523   [8]  64 FF FF FF 7F 03 FC 00
  can0  0DF80523   [8]  65 FF 7F FF 7F FF FF FF
  can0  0DF80523   [8]  66 7F 00 FF FF FF FF FF
  can0  19FA0423   [8]  60 03 FF FF 00 FF FF FF
  can0  09F11323   [8]  DB 72 71 00 00 FF FF FF
  can0  09F11223   [8]  FF FF FF FF 7F 2F F6 FF
  can0  09F11323   [8]  DC 87 F6 00 00 FF FF FF
  can0  09F80123   [8]  FF FF FF 7F FF FF FF 7F
  can0  09F80223   [8]  FF FF FF FF FF FF FF FF
  can0  09F11223   [8]  FF FF FF FF 7F 2F F6 FF
  can0  09FD0223   [8]  8E 00 00 7A F4 FA FF FF
  can0  09F11323   [8]  DD 72 71 00 00 FF FF FF
  can0  09F11223   [8]  FF FF FF FF 7F 2F F6 FF
  can0  09F11323   [8]  DE B9 38 00 00 FF FF FF
  can0  09F80123   [8]  FF FF FF 7F FF FF FF 7F
  can0  09F80223   [8]  FF FF FF FF FF FF FF FF
  can0  09F11223   [8]  FF FF FF FF 7F 2F F6 FF
  can0  09FD0223   [8]  8F FF FF FF FF F8 FF FF
  can0  09F11323   [8]  DF A5 B3 FF FF FF FF FF
  can0  15FD0723   [8]  C5 C1 9B 73 FF 7F E9 03
  can0  09F11223   [8]  FF FF FF FF 7F 2F F6 FF
  can0  09F11323   [8]  E0 8E 8E FF FF FF FF FF
  can0  09F80123   [8]  FF FF FF 7F FF FF FF 7F
  can0  09F80223   [8]  FF FF FF FF FF FF FF FF
  can0  09F11223   [8]  FF FF FF FF 7F 2F F6 FF
  can0  09F11323   [8]  E1 D5 55 FF FF FF FF FF
  can0  09F11223   [8]  FF FF FF FF 7F 2F F6 FF
  can0  09FD0223   [8]  90 00 00 7A F4 FA FF FF
  can0  09F11323   [8]  E2 31 A2 FF FF FF FF FF
  can0  09F80123   [8]  FF FF FF 7F FF FF FF 7F
  can0  09F80223   [8]  FF FF FF FF FF FF FF FF
  can0  09F11223   [8]  FF FF FF FF 7F 2F F6 FF
  can0  09F11323   [8]  E3 74 11 00 00 FF FF FF
  can0  09F11223   [8]  FF FF FF FF 7F 2F F6 FF
  can0  09FD0223   [8]  91 FF FF FF FF F8 FF FF
  can0  0DF01023   [8]  FF F0 FF FF FF FF FF FF
  can0  0DF80923   [8]  FF FF FF FF FF FF FF 7F
  can0  1DF11A23   [8]  64 F5 A9 42 2F F6 FF FF
  can0  19FD1323   [8]  80 1E F0 FF FF FF FF FF
  can0  0DF11923   [8]  64 FF 7F FF 7F FF 7F FF
  can0  09F11323   [8]  E4 5B 4C 00 00 FF FF FF
  can0  09F80123   [8]  FF FF FF 7F FF FF FF 7F
  can0  09F80223   [8]  FF FF FF FF FF FF FF FF
  can0  19FA0323   [8]  FF DB FF 7F FF 7F FF 7F
  can0  15FD0723   [8]  C6 C1 9B 73 FF 7F E9 03
  can0  15FD0823   [8]  FF 00 01 9B 73 FF FF FF
  can0  15FD0A23   [8]  FF 00 00 B8 47 0F 00 FF
  can0  09F11223   [8]  FF FF FF FF 7F 2F F6 FF
  can0  19FD1323   [8]  81 FF FF FF FF 7F FF FF
  can0  19FD1323   [8]  82 FF 7F 00 00 7A F4 FA
  can0  19FD1323   [8]  83 FF FF E9 03 9B 73 02
  can0  19FD1323   [8]  84 01 02 01 FF FF FF FF
  can0  0DF80523   [8]  80 2B FF FF FF FF FF FF
  can0  0DF80523   [8]  81 FF FF FF FF FF FF FF
  can0  0DF80523   [8]  82 FF 7F FF FF FF FF FF
  can0  0DF80523   [8]  83 FF FF 7F FF FF FF FF
  can0  0DF80523   [8]  84 FF FF FF 7F 03 FC 00
  can0  0DF80523   [8]  85 FF 7F FF 7F FF FF FF
  can0  0DF80523   [8]  86 7F 00 FF FF FF FF FF
  can0  19FA0423   [8]  80 03 FF FF 00 FF FF FF
  can0  09F11323   [8]  E5 47 C7 FF FF FF FF FF
  can0  09F11223   [8]  FF FF FF FF 7F 2F F6 FF
  can0  09F11323   [8]  E6 EA DA FF FF FF FF FF
  can0  09F80123   [8]  FF FF FF 7F FF FF FF 7F
  can0  09F80223   [8]  FF FF FF FF FF FF FF FF
  can0  09F11223   [8]  FF FF FF FF 7F 2F F6 FF
  can0  09FD0223   [8]  92 00 00 7A F4 FA FF FF
  can0  09F11323   [8]  E7 B9 38 00 00 FF FF FF
  can0  09F11223   [8]  FF FF FF FF 7F 2F F6 FF
  can0  09F11323   [8]  E8 74 11 00 00 FF FF FF
  can0  09F80123   [8]  FF FF FF 7F FF FF FF 7F
  can0  09F80223   [8]  FF FF FF FF FF FF FF FF
  can0  09F11223   [8]  FF FF FF FF 7F 2F F6 FF
  can0  09FD0223   [8]  93 FF FF FF FF F8 FF FF
  can0  09F11323   [8]  E9 EA DA FF FF FF FF FF
  can0  15FD0723   [8]  C7 C1 9B 73 FF 7F E9 03
  can0  09F11223   [8]  FF FF FF FF 7F 2F F6 FF
  can0  09F11323   [8]  EA 14 85 00 00 FF FF FF
  can0  09F80123   [8]  FF FF FF 7F FF FF FF 7F
  can0  09F80223   [8]  FF FF FF FF FF FF FF FF
  can0  09F11223   [8]  FF FF FF FF 7F 2F F6 FF
  can0  09F11323   [8]  EB 8C EE FF FF FF FF FF
  can0  09F11223   [8]  FF FF FF FF 7F 2F F6 FF
  can0  09FD0223   [8]  94 00 00 7A F4 FA FF FF
  can0  09F11323   [8]  EC EA DA FF FF FF FF FF
  can0  09F80123   [8]  FF FF FF 7F FF FF FF 7F
  can0  09F80223   [8]  FF FF FF FF FF FF FF FF
  can0  09F11223   [8]  FF FF FF FF 7F 2F F6 FF
  can0  09F11323   [8]  ED 47 C7 FF FF FF FF FF
  can0  09F11223   [8]  FF FF FF FF 7F 2F F6 FF
  can0  09FD0223   [8]  95 FF FF FF FF F8 FF FF
  can0  0DF01023   [8]  FF F0 FF FF FF FF FF FF
  can0  0DF80923   [8]  FF FF FF FF FF FF FF 7F
  can0  1DF11A23   [8]  65 F5 A9 42 2F F6 FF FF
  can0  19FD1323   [8]  A0 1E F0 FF FF FF FF FF
  can0  0DF11923   [8]  65 FF 7F FF 7F FF 7F FF
  can0  09F11323   [8]  EE 16 25 00 00 FF FF FF
  can0  09F80123   [8]  FF FF FF 7F FF FF FF 7F
  can0  09F80223   [8]  FF FF FF FF FF FF FF FF
  can0  19FA0323   [8]  FF DB FF 7F FF 7F FF 7F
  can0  15FD0723   [8]  C8 C1 9B 73 FF 7F E9 03
  can0  09F11223   [8]  FF FF FF FF 7F 2F F6 FF
  can0  19FD1323   [8]  A1 FF FF FF FF 7F FF FF
  can0  19FD1323   [8]  A2 FF 7F 00 00 7A F4 FA
  can0  19FD1323   [8]  A3 FF FF E9 03 9B 73 02
  can0  19FD1323   [8]  A4 01 02 01 FF FF FF FF
  can0  0DF80523   [8]  A0 2B FF FF FF FF FF FF
  can0  0DF80523   [8]  A1 FF FF FF FF FF FF FF
  can0  0DF80523   [8]  A2 FF 7F FF FF FF FF FF
  can0  0DF80523   [8]  A3 FF FF 7F FF FF FF FF
  can0  0DF80523   [8]  A4 FF FF FF 7F 03 FC 00
  can0  0DF80523   [8]  A5 FF 7F FF 7F FF FF FF
  can0  0DF80523   [8]  A6 7F 00 FF FF FF FF FF
  can0  19FA0423   [8]  A0 03 FF FF 00 FF FF FF
  can0  09F11323   [8]  EF CF 5D 00 00 FF FF FF
  can0  09F11223   [8]  FF FF FF FF 7F 2F F6 FF
  can0  09F11323   [8]  F0 00 00 00 00 FF FF FF
  can0  09F80123   [8]  FF FF FF 7F FF FF FF 7F
  can0  09F80223   [8]  FF FF FF FF FF FF FF FF
  can0  09F11223   [8]  FF FF FF FF 7F 2F F6 FF
  can0  09FD0223   [8]  96 00 00 7A F4 FA FF FF
  can0  09F11323   [8]  F1 47 C7 FF FF FF FF FF
  can0  09F11223   [8]  FF FF FF FF 7F 2F F6 FF
  can0  09F11323   [8]  F2 8C EE FF FF FF FF FF
  can0  09F80123   [8]  FF FF FF 7F FF FF FF 7F
  can0  09F80223   [8]  FF FF FF FF FF FF FF FF
  can0  09F11223   [8]  FF FF FF FF 7F 2F F6 FF
  can0  09FD0223   [8]  97 FF FF FF FF F8 FF FF
  can0  09F11323   [8]  F3 00 00 00 00 FF FF FF
  can0  15FD0723   [8]  C9 C1 9B 73 FF 7F E9 03
  can0  09F11223   [8]  FF FF FF FF 7F 2F F6 FF
  can0  09F11323   [8]  F4 8C EE FF FF FF FF FF
  can0  09F80123   [8]  FF FF FF 7F FF FF FF 7F
  can0  09F80223   [8]  FF FF FF FF FF FF FF FF
  can0  09F11223   [8]  FF FF FF FF 7F 2F F6 FF
  can0  09F11323   [8]  F5 5B 4C 00 00 FF FF FF
  can0  09F11223   [8]  FF FF FF FF 7F 2F F6 FF
  can0  09FD0223   [8]  98 00 00 7A F4 FA FF FF
  can0  09F11323   [8]  F6 14 85 00 00 FF FF FF
  can0  09F80123   [8]  FF FF FF 7F FF FF FF 7F
  can0  09F80223   [8]  FF FF FF FF FF FF FF FF
  can0  09F11223   [8]  FF FF FF FF 7F 2F F6 FF
  can0  09F11323   [8]  F7 CF 5D 00 00 FF FF FF
  can0  09F11223   [8]  FF FF FF FF 7F 2F F6 FF
  can0  09FD0223   [8]  99 FF FF FF FF F8 FF FF
  can0  0DF01023   [8]  FF F0 FF FF FF FF FF FF
  can0  0DF80923   [8]  FF FF FF FF FF FF FF 7F
  can0  1DF11A23   [8]  66 F5 A9 42 2F F6 FF FF
  can0  19FD1323   [8]  C0 1E F0 FF FF FF FF FF
  can0  0DF11923   [8]  66 FF 7F FF 7F FF 7F FF
  can0  09F11323   [8]  F8 6E 31 01 00 FF FF FF
  can0  09F80123   [8]  FF FF FF 7F FF FF FF 7F
  can0  09F80223   [8]  FF FF FF FF FF FF FF FF
  can0  19FA0323   [8]  FF DB FF 7F FF 7F FF 7F
  can0  15FD0723   [8]  CA C1 9B 73 FF 7F E9 03
  can0  15FD0823   [8]  FF 00 01 9B 73 FF FF FF
  can0  15FD0A23   [8]  FF 00 00 54 47 0F 00 FF
  can0  09F11223   [8]  FF FF FF FF 7F 2F F6 FF
  can0  19FD1323   [8]  C1 FF FF FF FF 7F FF FF
  can0  19FD1323   [8]  C2 FF 7F 00 00 7A F4 FA
  can0  19FD1323   [8]  C3 FF FF E9 03 9B 73 02
  can0  19FD1323   [8]  C4 01 02 01 FF FF FF FF
  can0  0DF80523   [8]  C0 2B FF FF FF FF FF FF
  can0  0DF80523   [8]  C1 FF FF FF FF FF FF FF
  can0  0DF80523   [8]  C2 FF 7F FF FF FF FF FF
  can0  0DF80523   [8]  C3 FF FF 7F FF FF FF FF
  can0  0DF80523   [8]  C4 FF FF FF 7F 03 FC 00
  can0  0DF80523   [8]  C5 FF 7F FF 7F FF FF FF
  can0  0DF80523   [8]  C6 7F 00 FF FF FF FF FF
  can0  19FA0423   [8]  C0 03 FF FF 00 FF FF FF
  can0  09F11323   [8]  F9 29 0A 01 00 FF FF FF
  can0  09F11223   [8]  FF FF FF FF 7F 2F F6 FF
  can0  09F11323   [8]  FA 87 F6 00 00 FF FF FF
  can0  09F80123   [8]  FF FF FF 7F FF FF FF 7F
  can0  09F80223   [8]  FF FF FF FF FF FF FF FF
  can0  09F11223   [8]  FF FF FF FF 7F 2F F6 FF
  can0  09FD0223   [8]  9A 00 00 7A F4 FA FF FF
  can0  09F11323   [8]  00 EA DA FF FF FF FF FF
  can0  09F11223   [8]  FF FF FF FF 7F 2F F6 FF
  can0  09F11323   [8]  01 8C EE FF FF FF FF FF
  can0  09F80123   [8]  FF FF FF 7F FF FF FF 7F
  can0  09F80223   [8]  FF FF FF FF FF FF FF FF
  can0  09F11223   [8]  FF FF FF FF 7F 2F F6 FF
  can0  09FD0223   [8]  9B FF FF FF FF F8 FF FF
  can0  09F11323   [8]  02 14 85 00 00 FF FF FF
  can0  15FD0723   [8]  CB C1 9B 73 FF 7F E9 03
  can0  09F11223   [8]  FF FF FF FF 7F 2F F6 FF
  can0  09F11323   [8]  03 EA DA FF FF FF FF FF
  can0  09F80123   [8]  FF FF FF 7F FF FF FF 7F
  can0  09F80223   [8]  FF FF FF FF FF FF FF FF
  can0  09F11223   [8]  FF FF FF FF 7F 2F F6 FF
  can0  09F11323   [8]  04 8C EE FF FF FF FF FF
  can0  09F11223   [8]  FF FF FF FF 7F 2F F6 FF
  can0  09FD0223   [8]  9C 0A 00 0D B7 FA FF FF
  can0  09F11323   [8]  05 47 C7 FF FF FF FF FF
  can0  09F80123   [8]  FF FF FF 7F FF FF FF 7F
  can0  09F80223   [8]  FF FF FF FF FF FF FF FF
  can0  09F11223   [8]  FF FF FF FF 7F 2F F6 FF
  can0  09F11323   [8]  06 47 C7 FF FF FF FF FF
  can0  09F11223   [8]  FF FF FF FF 7F 2F F6 FF
  can0  09FD0223   [8]  9D FF FF FF FF F8 FF FF
  can0  0DF01023   [8]  FF F0 FF FF FF FF FF FF
  can0  0DF80923   [8]  FF FF FF FF FF FF FF 7F
  can0  1DF11A23   [8]  67 F5 A9 42 2F F6 FF FF
  can0  19FD1323   [8]  E0 1E F0 FF FF FF FF FF
  can0  0DF11923   [8]  67 FF 7F FF 7F FF 7F FF
  can0  09F11323   [8]  07 16 25 00 00 FF FF FF
  can0  09F80123   [8]  FF FF FF 7F FF FF FF 7F
  can0  09F80223   [8]  FF FF FF FF FF FF FF FF
  can0  19FA0323   [8]  FF DB FF 7F FF 7F FF 7F
  can0  15FD0723   [8]  CC C1 9B 73 FF 7F E9 03
  can0  09F11223   [8]  FF FF FF FF 7F 2F F6 FF
  can0  19FD1323   [8]  E1 FF FF FF FF 7F FF FF
  can0  19FD1323   [8]  E2 FF 7F 00 00 7A F4 FA
  can0  19FD1323   [8]  E3 FF FF E9 03 9B 73 02
  can0  19FD1323   [8]  E4 01 02 01 FF FF FF FF
  can0  0DF80523   [8]  E0 2B FF FF FF FF FF FF
  can0  0DF80523   [8]  E1 FF FF FF FF FF FF FF
  can0  0DF80523   [8]  E2 FF 7F FF FF FF FF FF
  can0  0DF80523   [8]  E3 FF FF 7F FF FF FF FF
  can0  0DF80523   [8]  E4 FF FF FF 7F 03 FC 00
  can0  0DF80523   [8]  E5 FF 7F FF 7F FF FF FF
  can0  0DF80523   [8]  E6 7F 00 FF FF FF FF FF
  can0  19FA0423   [8]  E0 03 FF FF 00 FF FF FF
  can0  09F11323   [8]  08 CF 5D 00 00 FF FF FF
  can0  09F11223   [8]  FF FF FF FF 7F 2F F6 FF
  can0  09F11323   [8]  09 8E 8E FF FF FF FF FF
  can0  09F80123   [8]  FF FF FF 7F FF FF FF 7F
  can0  09F80223   [8]  FF FF FF FF FF FF FF FF
  can0  09F11223   [8]  FF FF FF FF 7F 2F F6 FF
  can0  09FD0223   [8]  9E 00 00 7A F4 FA FF FF
  can0  09F11323   [8]  0A D5 55 FF FF FF FF FF
  can0  09F11223   [8]  FF FF FF FF 7F 2F F6 FF
  can0  09F11323   [8]  0B EC 7A FF FF FF FF FF
  can0  09F80123   [8]  FF FF FF 7F FF FF FF 7F
  can0  09F80223   [8]  FF FF FF FF FF FF FF FF
  can0  09F11223   [8]  FF FF FF FF 7F 2F F6 FF
  can0  09FD0223   [8]  9F FF FF FF FF F8 FF FF
  can0  09F11323   [8]  0C 8E 8E FF FF FF FF FF
  can0  15FD0723   [8]  CD C1 9B 73 FF 7F E9 03
  can0  09F11223   [8]  FF FF FF FF 7F 2F F6 FF
  can0  09F11323   [8]  0D 79 09 FF FF FF FF FF
  can0  09F80123   [8]  FF FF FF 7F FF FF FF 7F
  can0  09F80223   [8]  FF FF FF FF FF FF FF FF
  can0  09F11223   [8]  FF FF FF FF 7F 2F F6 FF
  can0  09F11323   [8]  0E 90 2E FF FF FF FF FF
  can0  09F11223   [8]  FF FF FF FF 7F 2F F6 FF
  can0  09FD0223   [8]  A0 00 00 7A F4 FA FF FF
  can0  09F11323   [8]  0F 90 2E FF FF FF FF FF
  can0  09F80123   [8]  FF FF FF 7F FF FF FF 7F
  can0  09F80223   [8]  FF FF FF FF FF FF FF FF
  can0  09F11223   [8]  FF FF FF FF 7F 2F F6 FF
  can0  09F11323   [8]  10 8E 8E FF FF FF FF FF
  can0  09F11223   [8]  FF FF FF FF 7F 2F F6 FF
  can0  09FD0223   [8]  A1 FF FF FF FF F8 FF FF
  can0  0DF01023   [8]  FF F0 FF FF FF FF FF FF
  can0  0DF80923   [8]  FF FF FF FF FF FF FF 7F
  can0  1DF11A23   [8]  68 F5 A9 42 2F F6 FF FF
  can0  19FD1323   [8]  00 1E F0 FF FF FF FF FF
  can0  0DF11923   [8]  68 FF 7F FF 7F FF 7F FF
  can0  09F11323   [8]  11 B9 38 00 00 FF FF FF
  can0  09F80123   [8]  FF FF FF 7F FF FF FF 7F
  can0  09F80223   [8]  FF FF FF FF FF FF FF FF
  can0  19FA0323   [8]  FF DB FF 7F FF 7F FF 7F
  can0  15FD0723   [8]  CE C1 9B 73 FF 7F E9 03
  can0  15FD0823   [8]  FF 00 01 9B 73 FF FF FF
  can0  15FD0A23   [8]  FF 00 00 54 47 0F 00 FF
  can0  09F11223   [8]  FF FF FF FF 7F 2F F6 FF
  can0  19FD1323   [8]  01 FF FF FF FF 7F FF FF
  can0  19FD1323   [8]  02 FF 7F 00 00 7A F4 FA
  can0  19FD1323   [8]  03 FF FF E9 03 9B 73 02
  can0  19FD1323   [8]  04 01 02 01 FF FF FF FF
  can0  0DF80523   [8]  00 2B FF FF FF FF FF FF
  can0  0DF80523   [8]  01 FF FF FF FF FF FF FF
  can0  0DF80523   [8]  02 FF 7F FF FF FF FF FF
  can0  0DF80523   [8]  03 FF FF 7F FF FF FF FF
  can0  0DF80523   [8]  04 FF FF FF 7F 03 FC 00
  can0  0DF80523   [8]  05 FF 7F FF 7F FF FF FF
  can0  0DF80523   [8]  06 7F 00 FF FF FF FF FF
  can0  19FA0423   [8]  00 03 FF FF 00 FF FF FF
  can0  09F11323   [8]  12 47 C7 FF FF FF FF FF
  can0  09F11223   [8]  FF FF FF FF 7F 2F F6 FF
  can0  09F11323   [8]  13 EA DA FF FF FF FF FF
  can0  09F80123   [8]  FF FF FF 7F FF FF FF 7F
  can0  09F80223   [8]  FF FF FF FF FF FF FF FF
  can0  09F11223   [8]  FF FF FF FF 7F 2F F6 FF
  can0  09FD0223   [8]  A2 00 00 7A F4 FA FF FF
  can0  09F11323   [8]  14 8C EE FF FF FF FF FF
  can0  09F11223   [8]  FF FF FF FF 7F 2F F6 FF
  can0  09F11323   [8]  15 A5 B3 FF FF FF FF FF
  can0  09F80123   [8]  FF FF FF 7F FF FF FF 7F
  can0  09F80223   [8]  FF FF FF FF FF FF FF FF
  can0  09F11223   [8]  FF FF FF FF 7F 2F F6 FF
  can0  09FD0223   [8]  A3 FF FF FF FF F8 FF FF
  can0  09F11323   [8]  16 D5 55 FF FF FF FF FF
  can0  15FD0723   [8]  CF C1 9B 73 FF 7F E9 03
  can0  09F11223   [8]  FF FF FF FF 7F 2F F6 FF
  can0  09F11323   [8]  17 49 67 FF FF FF FF FF
  can0  09F80123   [8]  FF FF FF 7F FF FF FF 7F
  can0  09F80223   [8]  FF FF FF FF FF FF FF FF
  can0  09F11223   [8]  FF FF FF FF 7F 2F F6 FF
  can0  09F11323   [8]  18 79 09 FF FF FF FF FF
  can0  09F11223   [8]  FF FF FF FF 7F 2F F6 FF
  can0  09FD0223   [8]  A4 00 00 7A F4 FA FF FF
  can0  09F11323   [8]  19 8E 8E FF FF FF FF FF
  can0  09F80123   [8]  FF FF FF 7F FF FF FF 7F
  can0  09F80223   [8]  FF FF FF FF FF FF FF FF
  can0  09F11223   [8]  FF FF FF FF 7F 2F F6 FF
  can0  09F11323   [8]  1A 8C EE FF FF FF FF FF
  can0  09F11223   [8]  FF FF FF FF 7F 2F F6 FF
  can0  09FD0223   [8]  A5 FF FF FF FF F8 FF FF
  can0  0DF01023   [8]  FF F0 FF FF FF FF FF FF
  can0  0DF80923   [8]  FF FF FF FF FF FF FF 7F
  can0  1DF11A23   [8]  69 F5 A9 42 2F F6 FF FF
  can0  19FD1323   [8]  20 1E F0 FF FF FF FF FF
  can0  0DF11923   [8]  69 FF 7F FF 7F FF 7F FF
  can0  09F11323   [8]  1B 47 C7 FF FF FF FF FF
  can0  09F80123   [8]  FF FF FF 7F FF FF FF 7F
  can0  09F80223   [8]  FF FF FF FF FF FF FF FF
  can0  19FA0323   [8]  FF DB FF 7F FF 7F FF 7F
  can0  15FD0723   [8]  D0 C1 9B 73 FF 7F E9 03
  can0  09F11223   [8]  FF FF FF FF 7F 2F F6 FF
  can0  19FD1323   [8]  21 FF FF FF FF 7F FF FF
  can0  19FD1323   [8]  22 FF 7F 00 00 7A F4 FA
  can0  19FD1323   [8]  23 FF FF E9 03 9B 73 02
  can0  19FD1323   [8]  24 01 02 01 FF FF FF FF
  can0  0DF80523   [8]  20 2B FF FF FF FF FF FF
  can0  0DF80523   [8]  21 FF FF FF FF FF FF FF
  can0  0DF80523   [8]  22 FF 7F FF FF FF FF FF
  can0  0DF80523   [8]  23 FF FF 7F FF FF FF FF
  can0  0DF80523   [8]  24 FF FF FF 7F 03 FC 00
  can0  0DF80523   [8]  25 FF 7F FF 7F FF FF FF
  can0  0DF80523   [8]  26 7F 00 FF FF FF FF FF
  can0  19FA0423   [8]  20 03 FF FF 00 FF FF FF
  can0  09F11323   [8]  1C 31 A2 FF FF FF FF FF
  can0  09F11223   [8]  FF FF FF FF 7F 2F F6 FF
  can0  09F11323   [8]  1D 47 C7 FF FF FF FF FF
  can0  09F80123   [8]  FF FF FF 7F FF FF FF 7F
  can0  09F80223   [8]  FF FF FF FF FF FF FF FF
  can0  09F11223   [8]  FF FF FF FF 7F 2F F6 FF
  can0  09FD0223   [8]  A6 0A 00 0D B7 FA FF FF
  can0  09F11323   [8]  1E 8C EE FF FF FF FF FF
  can0  09F11223   [8]  FF FF FF FF 7F 2F F6 FF
  can0  09F11323   [8]  1F 00 00 00 00 FF FF FF
  can0  09F80123   [8]  FF FF FF 7F FF FF FF 7F
  can0  09F80223   [8]  FF FF FF FF FF FF FF FF
  can0  09F11223   [8]  FF FF FF FF 7F 2F F6 FF
  can0  09FD0223   [8]  A7 FF FF FF FF F8 FF FF
  can0  09F11323   [8]  20 EA DA FF FF FF FF FF
  can0  15FD0723   [8]  D1 C1 9B 73 FF 7F E9 03
  can0  09F11223   [8]  FF FF FF FF 7F 2F F6 FF
  can0  09F11323   [8]  21 D5 55 FF FF FF FF FF
  can0  09F80123   [8]  FF FF FF 7F FF FF FF 7F
  can0  09F80223   [8]  FF FF FF FF FF FF FF FF
  can0  09F11223   [8]  FF FF FF FF 7F 2F F6 FF
  can0  09F11323   [8]  22 ED 1A FF FF FF FF FF
  can0  09F11223   [8]  FF FF FF FF 7F 2F F6 FF
  can0  09FD0223   [8]  A8 0F 00 0D B7 FA FF FF
  can0  09F11323   [8]  23 ED 1A FF FF FF FF FF
  can0  09F80123   [8]  FF FF FF 7F FF FF FF 7F
  can0  09F80223   [8]  FF FF FF FF FF FF FF FF
  can0  09F11223   [8]  FF FF FF FF 7F 2F F6 FF
  can0  09F11323   [8]  24 31 A2 FF FF FF FF FF
  can0  09F11223   [8]  FF FF FF FF 7F 2F F6 FF
  can0  09FD0223   [8]  A9 FF FF FF FF F8 FF FF
  can0  0DF01023   [8]  FF F0 FF FF FF FF FF FF
  can0  0DF80923   [8]  FF FF FF FF FF FF FF 7F
  can0  1DF11A23   [8]  6A F5 A9 42 2F F6 FF FF
  can0  19FD1323   [8]  40 1E F0 FF FF FF FF FF
  can0  0DF11923   [8]  6A FF 7F FF 7F FF 7F FF
  can0  09F11323   [8]  25 47 C7 FF FF FF FF FF
  can0  09F80123   [8]  FF FF FF 7F FF FF FF 7F
  can0  09F80223   [8]  FF FF FF FF FF FF FF FF
  can0  19FA0323   [8]  FF DB FF 7F FF 7F FF 7F
  can0  15FD0723   [8]  D2 C1 9B 73 FF 7F E9 03
  can0  15FD0823   [8]  FF 00 01 9B 73 FF FF FF
  can0  15FD0A23   [8]  FF 00 00 F0 46 0F 00 FF
  can0  09F11223   [8]  FF FF FF FF 7F 2F F6 FF
  can0  19FD1323   [8]  41 FF FF FF FF 7F FF FF
  can0  19FD1323   [8]  42 FF 7F 00 00 7A F4 FA
  can0  19FD1323   [8]  43 FF FF E9 03 9B 73 02
  can0  19FD1323   [8]  44 01 02 01 FF FF FF FF
  can0  0DF80523   [8]  40 2B FF FF FF FF FF FF
  can0  0DF80523   [8]  41 FF FF FF FF FF FF FF
  can0  0DF80523   [8]  42 FF 7F FF FF FF FF FF
  can0  0DF80523   [8]  43 FF FF 7F FF FF FF FF
  can0  0DF80523   [8]  44 FF FF FF 7F 03 FC 00
  can0  0DF80523   [8]  45 FF 7F FF 7F FF FF FF
  can0  0DF80523   [8]  46 7F 00 FF FF FF FF FF
  can0  19FA0423   [8]  40 03 FF FF 00 FF FF FF
  can0  09F11323   [8]  26 00 00 00 00 FF FF FF
  can0  09F11223   [8]  FF FF FF FF 7F 2F F6 FF
  can0  09F11323   [8]  27 31 A2 FF FF FF FF FF
  can0  09F80123   [8]  FF FF FF 7F FF FF FF 7F
  can0  09F80223   [8]  FF FF FF FF FF FF FF FF
  can0  09F11223   [8]  FF FF FF FF 7F 2F F6 FF
  can0  09FD0223   [8]  AA 00 00 7A F4 FA FF FF
  can0  09F11323   [8]  28 49 67 FF FF FF FF FF
  can0  09F11223   [8]  FF FF FF FF 7F 2F F6 FF
  can0  09F11323   [8]  29 47 C7 FF FF FF FF FF
  can0  09F80123   [8]  FF FF FF 7F FF FF FF 7F
  can0  09F80223   [8]  FF FF FF FF FF FF FF FF
  can0  09F11223   [8]  FF FF FF FF 7F 2F F6 FF
  can0  09FD0223   [8]  AB FF FF FF FF F8 FF FF
  can0  09F11323   [8]  2A EC 7A FF FF FF FF FF
  can0  15FD0723   [8]  D3 C1 9B 73 FF 7F E9 03
  can0  09F11223   [8]  FF FF FF FF 7F 2F F6 FF
  can0  09F11323   [8]  2B 8E 8E FF FF FF FF FF
  can0  09F80123   [8]  FF FF FF 7F FF FF FF 7F
  can0  09F80223   [8]  FF FF FF FF FF FF FF FF
  can0  09F11223   [8]  FF FF FF FF 7F 2F F6 FF
  can0  09F11323   [8]  2C EA DA FF FF FF FF FF
  can0  09F11223   [8]  FF FF FF FF 7F 2F F6 FF
  can0  09FD0223   [8]  AC 00 00 7A F4 FA FF FF
  can0  09F11323   [8]  2D 14 85 00 00 FF FF FF
  can0  09F80123   [8]  FF FF FF 7F FF FF FF 7F
  can0  09F80223   [8]  FF FF FF FF FF FF FF FF
  can0  09F11223   [8]  FF FF FF FF 7F 2F F6 FF
  can0  09F11323   [8]  2E 87 F6 00 00 FF FF FF
  can0  09F11223   [8]  FF FF FF FF 7F 2F F6 FF
  can0  09FD0223   [8]  AD FF FF FF FF F8 FF FF
  can0  0DF01023   [8]  FF F0 FF FF FF FF FF FF
  can0  0DF80923   [8]  FF FF FF FF FF FF FF 7F
  can0  1DF11A23   [8]  6B F5 A9 42 2F F6 FF FF
  can0  19FD1323   [8]  60 1E F0 FF FF FF FF FF
  can0  0DF11923   [8]  6B FF 7F FF 7F FF 7F FF
  can0  09F11323   [8]  2F CA 7D 01 00 FF FF FF
  can0  09F80123   [8]  FF FF FF 7F FF FF FF 7F
  can0  09F80223   [8]  FF FF FF FF FF FF FF FF
  can0  19FA0323   [8]  FF DB FF 7F FF 7F FF 7F
  can0  15FD0723   [8]  D4 C1 9B 73 FF 7F E9 03
  can0  09F11223   [8]  FF FF FF FF 7F 2F F6 FF
  can0  19FD1323   [8]  61 FF FF FF FF 7F FF FF
  can0  19FD1323   [8]  62 FF 7F 00 00 7A F4 FA
  can0  19FD1323   [8]  63 FF FF E9 03 9B 73 02
  can0  19FD1323   [8]  64 01 02 01 FF FF FF FF
  can0  0DF80523   [8]  60 2B FF FF FF FF FF FF
  can0  0DF80523   [8]  61 FF FF FF FF FF FF FF
  can0  0DF80523   [8]  62 FF 7F FF FF FF FF FF
  can0  0DF80523   [8]  63 FF FF 7F FF FF FF FF
  can0  0DF80523   [8]  64 FF FF FF 7F 03 FC 00
  can0  0DF80523   [8]  65 FF 7F FF 7F FF FF FF
  can0  0DF80523   [8]  66 7F 00 FF FF FF FF FF
  can0  19FA0423   [8]  60 03 FF FF 00 FF FF FF
  can0  09F11323   [8]  30 2B AA 00 00 FF FF FF
  can0  09F11223   [8]  FF FF FF FF 7F 2F F6 FF
  can0  09F11323   [8]  31 13 E5 00 00 FF FF FF
  can0  09F80123   [8]  FF FF FF 7F FF FF FF 7F
  can0  09F80223   [8]  FF FF FF FF FF FF FF FF
  can0  09F11223   [8]  FF FF FF FF 7F 2F F6 FF
  can0  09FD0223   [8]  AE 00 00 7A F4 FA FF FF
  can0  09F11323   [8]  32 8C EE FF FF FF FF FF
  can0  09F11223   [8]  FF FF FF FF 7F 2F F6 FF
  can0  09F11323   [8]  33 00 00 00 00 FF FF FF
  can0  09F80123   [8]  FF FF FF 7F FF FF FF 7F
  can0  09F80223   [8]  FF FF FF FF FF FF FF FF
  can0  09F11223   [8]  FF FF FF FF 7F 2F F6 FF
  can0  09FD0223   [8]  AF FF FF FF FF F8 FF FF
  can0  09F11323   [8]  34 31 A2 FF FF FF FF FF
  can0  15FD0723   [8]  D5 C1 9B 73 FF 7F E9 03
  can0  09F11223   [8]  FF FF FF FF 7F 2F F6 FF
  can0  09F11323   [8]  35 16 25 00 00 FF FF FF
  can0  09F80123   [8]  FF FF FF 7F FF FF FF 7F
  can0  09F80223   [8]  FF FF FF FF FF FF FF FF
  can0  09F11223   [8]  FF FF FF FF 7F 2F F6 FF
  can0  09F11323   [8]  36 74 11 00 00 FF FF FF
  can0  09F11223   [8]  FF FF FF FF 7F 2F F6 FF
  can0  09FD0223   [8]  B0 00 00 7A F4 FA FF FF
  can0  09F11323   [8]  37 72 71 00 00 FF FF FF
  can0  09F80123   [8]  FF FF FF 7F FF FF FF 7F
  can0  09F80223   [8]  FF FF FF FF FF FF FF FF
  can0  09F11223   [8]  FF FF FF FF 7F 2F F6 FF
  can0  09F11323   [8]  38 00 00 00 00 FF FF FF
  can0  09F11223   [8]  FF FF FF FF 7F 2F F6 FF
